!Agilent N9923A: A.05.17
!Date: Sunday, 01 January 2006 12:14:33
!Model: N9923A
!Serial: MY50371189
!CHECKSUM:1599253123
!Correction: S11(ON U)
!S1P File: Measurement: S11:
# Hz S DB R 50
2000000000	-4.49260680345362	153.640497728552
2000800000	-4.46185233045054	153.270138602743
2001600000	-4.43469723726392	152.913744165159
2002400000	-4.40991279169433	152.534562463808
2003200000	-4.38502026522702	152.123536487825
2004000000	-4.35700110074417	151.808596597366
2004800000	-4.32722302869526	151.448628433134
2005600000	-4.30449765310322	151.045915810453
2006400000	-4.27441090595975	150.659999230769
2007200000	-4.24690625872748	150.279034871588
2008000000	-4.2189383799086	149.898204439929
2008800000	-4.19095332629236	149.518495108774
2009600000	-4.16508391694998	149.114554878269
2010400000	-4.13662896008936	148.718337035392
2011200000	-4.10780626735239	148.335935971819
2012000000	-4.08424418317115	147.952098500806
2012800000	-4.05568802571487	147.540356959738
2013600000	-4.0298228713881	147.130591440243
2014400000	-4.00880696859211	146.73991749275
2015200000	-3.98140442606673	146.309797342521
2016000000	-3.94893153432667	145.897931704843
2016800000	-3.92561318933582	145.507972194039
2017600000	-3.901579391941	145.084127756504
2018400000	-3.87357871654336	144.672348055253
2019200000	-3.84673433361253	144.249402330026
2020000000	-3.81970322850074	143.790056272307
2020800000	-3.79422059219217	143.376733381698
2021600000	-3.77035330996525	142.944565457891
2022400000	-3.73954739585568	142.540500621637
2023200000	-3.71370355433622	142.098183632132
2024000000	-3.68928048248265	141.693975904397
2024800000	-3.66288060687571	141.215521821551
2025600000	-3.63927044048653	140.771208303435
2026400000	-3.60823184034695	140.364796430347
2027200000	-3.58585210962784	139.932443275994
2028000000	-3.56253481098814	139.462347794238
2028800000	-3.53352328333735	139.012216050766
2029600000	-3.50523974334033	138.570503226843
2030400000	-3.48246593441314	138.126039169866
2031200000	-3.4610896975716	137.630965402187
2032000000	-3.43851462834042	137.172726327906
2032800000	-3.40660514609805	136.747246640299
2033600000	-3.3753366767942	136.280439553276
2034400000	-3.35752676499298	135.830997014617
2035200000	-3.32710076605206	135.379075994247
2036000000	-3.30523056770215	134.880126210071
2036800000	-3.28120162563561	134.443365451243
2037600000	-3.24701858513966	134.003376863855
2038400000	-3.2299296240421	133.469011373461
2039200000	-3.20024911784493	133.024708218417
2040000000	-3.1756843235098	132.553977148261
2040800000	-3.14844266340278	132.041774519508
2041600000	-3.11891495416132	131.607774251549
2042400000	-3.10448785910212	131.177925795029
2043200000	-3.06968360529043	130.692146370216
2044000000	-3.04836724756624	130.171158891199
2044800000	-3.02350661061834	129.697840481732
2045600000	-2.99257478283406	129.235187849163
2046400000	-2.97414398429172	128.752789024465
2047200000	-2.94494736004134	128.276663347369
2048000000	-2.9166985202396	127.860360779561
2048800000	-2.88019837431345	127.357333999664
2049600000	-2.85705156962819	126.913447025847
2050400000	-2.84114848131455	126.379840399854
2051200000	-2.81785996096258	125.84688670182
2052000000	-2.79007093320755	125.424962573746
2052800000	-2.75613202662815	124.933508524864
2053600000	-2.73909756484538	124.412024787644
2054400000	-2.71062907249134	123.946532207491
2055200000	-2.68680307954659	123.473046233034
2056000000	-2.66089090553997	122.991016018345
2056800000	-2.62650251258388	122.487539715445
2057600000	-2.60939525059812	122.044706763715
2058400000	-2.58037693639456	121.583288053671
2059200000	-2.553046860698	121.037873208841
2060000000	-2.5286400081003	120.55930666712
2060800000	-2.49900764729463	120.098360274875
2061600000	-2.47757108271831	119.60608005278
2062400000	-2.45068113238118	119.04698098595
2063200000	-2.42768995540065	118.541681758629
2064000000	-2.42210796277332	118.037048079665
2064800000	-2.39518106568254	117.562771684721
2065600000	-2.36673907482537	117.048416616234
2066400000	-2.34360556814226	116.558915555508
2067200000	-2.32062825662	116.065578584114
2068000000	-2.29609308898773	115.556918680072
2068800000	-2.26940038353333	115.040887713627
2069600000	-2.2443892714016	114.548217263344
2070400000	-2.22026631490659	114.059447637693
2071200000	-2.19913657501762	113.554667774048
2072000000	-2.173218459014	113.049699788274
2072800000	-2.14884631554265	112.566409531818
2073600000	-2.12551157815394	112.027160584504
2074400000	-2.10460405572429	111.541193374253
2075200000	-2.07860977470365	111.028335927039
2076000000	-2.05632701889603	110.535688162439
2076800000	-2.03328538579384	110.023750666933
2077600000	-2.00993801032571	109.506019746686
2078400000	-1.98772646639498	109.014932300601
2079200000	-1.96394190340638	108.517371503744
2080000000	-1.94456669136659	107.990688868952
2080800000	-1.91925798201406	107.493968890277
2081600000	-1.89887213631402	106.974400940322
2082400000	-1.87618445955249	106.456092787288
2083200000	-1.8571856205137	105.970395073581
2084000000	-1.83276451371753	105.439061849288
2084800000	-1.81509868293574	104.927459397362
2085600000	-1.79292260578437	104.414178172751
2086400000	-1.76938052187369	103.891542704439
2087200000	-1.74852827574357	103.359352431354
2088000000	-1.72805064290792	102.852460284973
2088800000	-1.70867458295633	102.339845565997
2089600000	-1.68993186212854	101.82770359595
2090400000	-1.66806889482924	101.293572741052
2091200000	-1.64792955766174	100.778013998235
2092000000	-1.63136828114884	100.269028082565
2092800000	-1.61658415536772	99.7149576931147
2093600000	-1.59379061591032	99.2119464573528
2094400000	-1.57575016579144	98.6733626879747
2095200000	-1.55978311566255	98.1494828159439
2096000000	-1.53917926162958	97.5944511412493
2096800000	-1.52309616854034	97.0533502708475
2097600000	-1.50949322298674	96.5177522873453
2098400000	-1.48241072481642	95.9984890635784
2099200000	-1.47180638486991	95.4848481819866
2100000000	-1.45724610425025	94.9540602623187
2100800000	-1.43810099339655	94.3672855126177
2101600000	-1.4300926069058	93.8834769220905
2102400000	-1.41514887516229	93.2974159546625
2103200000	-1.39909375905874	92.7731860432556
2104000000	-1.38461857941851	92.2037247719238
2104800000	-1.3721207101944	91.6562066818847
2105600000	-1.35743431643208	91.106187711771
2106400000	-1.34230458383168	90.5425789009795
2107200000	-1.33216221210446	89.9920559586611
2108000000	-1.32029806127346	89.4348047105618
2108800000	-1.30680183417127	88.8485076008699
2109600000	-1.29459754122853	88.3083349175681
2110400000	-1.28408469736661	87.7259208770276
2111200000	-1.2740675506495	87.1646416303484
2112000000	-1.26409524314261	86.563765511892
2112800000	-1.24698057955433	86.0044470951411
2113600000	-1.239984737748	85.4116082816857
2114400000	-1.23161937606535	84.8484463654704
2115200000	-1.22334777637323	84.2651289824662
2116000000	-1.21605592405511	83.6753250549731
2116800000	-1.20237881697169	83.0654291215057
2117600000	-1.19519486499658	82.4805602199223
2118400000	-1.18645880138001	81.8910259749842
2119200000	-1.17977569817937	81.2723806165225
2120000000	-1.17427549534224	80.668290695212
2120800000	-1.16316659283939	80.0725557792397
2121600000	-1.16137126179154	79.4911958642343
2122400000	-1.1542775840874	78.8510136317373
2123200000	-1.14698590307198	78.2236630075963
2124000000	-1.1404765638863	77.6200455140228
2124800000	-1.13450856261604	76.9866198003116
2125600000	-1.13223410171472	76.394558651617
2126400000	-1.12379897991837	75.7282663890907
2127200000	-1.11991143020832	75.1110435964257
2128000000	-1.12209712736315	74.4634242324686
2128800000	-1.11409336177891	73.8435450596685
2129600000	-1.11034002208314	73.1843388515441
2130400000	-1.1063299051144	72.5563091410924
2131200000	-1.10748794144568	71.9419782814865
2132000000	-1.10205197472756	71.2466298887545
2132800000	-1.10093941068519	70.5998497858473
2133600000	-1.09870667910606	69.9636108816694
2134400000	-1.09725921880427	69.2783133155522
2135200000	-1.09383312060478	68.631707630224
2136000000	-1.09390295260562	67.9665151979431
2136800000	-1.08930364217832	67.315333382
2137600000	-1.09172311483456	66.640760278287
2138400000	-1.087525298036	65.9533410747067
2139200000	-1.083937244746	65.2618336705992
2140000000	-1.0880743283747	64.5887761350858
2140800000	-1.0859487922449	63.9028432513417
2141600000	-1.07259665369866	63.2132105141445
2142400000	-1.0827183534426	62.5510411596551
2143200000	-1.08699442644468	61.8297051049885
2144000000	-1.08440042702301	61.17195717565
2144800000	-1.09479407931115	60.457629552604
2145600000	-1.0945277158654	59.7814919576958
2146400000	-1.09031657321568	59.0249229051626
2147200000	-1.09373760974863	58.3223101889744
2148000000	-1.09094269159593	57.6232928569999
2148800000	-1.09837059362944	56.8635498964652
2149600000	-1.09670794104585	56.1659692110698
2150400000	-1.10159579654655	55.4952982529695
2151200000	-1.1049201821615	54.7144539279867
2152000000	-1.10217542721806	53.9947257488858
2152800000	-1.10531493546592	53.203756273468
2153600000	-1.09968322388492	52.4867121963026
2154400000	-1.09836965715627	51.8015306789761
2155200000	-1.10351266121749	51.1054061892685
2156000000	-1.10277343651505	50.3168051071075
2156800000	-1.10534497545988	49.5365456324077
2157600000	-1.10496706187053	48.7841582810659
2158400000	-1.08501732006602	48.0891089505408
2159200000	-1.09947865376648	47.289142498777
2160000000	-1.08719167899729	46.5533495494851
2160800000	-1.09330067327253	45.7361194230369
2161600000	-1.08764313915966	44.9979848692567
2162400000	-1.08656910950294	44.2820291647186
2163200000	-1.08911874167208	43.5300801929729
2164000000	-1.08675746583556	42.776847353661
2164800000	-1.08705102377288	42.0244072466582
2165600000	-1.083323137211	41.2621432901201
2166400000	-1.08058900279512	40.4875123156637
2167200000	-1.07304819468156	39.7556574588736
2168000000	-1.07384446356971	38.9859225792287
2168800000	-1.06485105363273	38.2326378362851
2169600000	-1.07145476630918	37.4767008813832
2170400000	-1.06251230742035	36.7054159060715
2171200000	-1.05950176779845	35.9072122030165
2172000000	-1.05100170142155	35.1948467279902
2172800000	-1.0469526244899	34.4141141803954
2173600000	-1.03302528647612	33.64356128944
2174400000	-1.03203029908842	32.9442246026396
2175200000	-1.02275538378845	32.2040670444425
2176000000	-1.01631447484312	31.414160981305
2176800000	-1.00327461895628	30.669558767238
2177600000	-0.999964138062299	29.9596679207348
2178400000	-0.993313419012454	29.1503861895776
2179200000	-0.984639518769678	28.4298744128268
2180000000	-0.972279971848278	27.6914130933059
2180800000	-0.963195058988659	26.9471481073307
2181600000	-0.955699944732239	26.1973607948089
2182400000	-0.949278779153186	25.5038992796172
2183200000	-0.942512662434469	24.7752276307677
2184000000	-0.929694480382278	24.0328925904416
2184800000	-0.922037343845498	23.3134476190768
2185600000	-0.90846505692254	22.5652568042888
2186400000	-0.903485797376478	21.8431183702541
2187200000	-0.890010759072782	21.1346838056613
2188000000	-0.876136082395398	20.3761607779162
2188800000	-0.870756254508928	19.6892898038912
2189600000	-0.851114129166384	18.9596495409253
2190400000	-0.850285028799328	18.2587867383926
2191200000	-0.834765181325713	17.533160441179
2192000000	-0.831916601713389	16.833939744426
2192800000	-0.821710077504741	16.137845334533
2193600000	-0.808144974748872	15.4056836336402
2194400000	-0.797486633920139	14.745171077653
2195200000	-0.78220867420528	14.0032783565944
2196000000	-0.774323380607998	13.3324668115402
2196800000	-0.760191225045401	12.6555300011746
2197600000	-0.744052421364014	11.9364581469454
2198400000	-0.739284229115698	11.3353694441998
2199200000	-0.725921549383877	10.6146814714873
2200000000	-0.714334598275014	9.92935560765672
2200800000	-0.704359198846543	9.2660303537048
2201600000	-0.694199185564859	8.587600763121
2202400000	-0.673855292276939	7.87067266936117
2203200000	-0.668875329533752	7.2623922510956
2204000000	-0.65494734118247	6.56423801433944
2204800000	-0.642733158364794	5.90331389899902
2205600000	-0.632491554541669	5.24160947621875
2206400000	-0.620659972745621	4.5863844809231
2207200000	-0.609759730883232	3.95028379957204
2208000000	-0.599918212195059	3.28041632873591
2208800000	-0.58669735293275	2.63623086622083
2209600000	-0.576197011788045	2.00822581416069
2210400000	-0.566969875865512	1.36925345424704
2211200000	-0.563058030333331	0.661082916941771
2212000000	-0.549201711586426	0.0420245835390532
2212800000	-0.539333867794732	-0.605561645941746
2213600000	-0.534015319936082	-1.25132453807239
2214400000	-0.521787768345317	-1.89444123845141
2215200000	-0.513611239594602	-2.48597321992288
2216000000	-0.50358537525887	-3.14391034019188
2216800000	-0.500906841416663	-3.80284624887929
2217600000	-0.491845435142634	-4.41788717904224
2218400000	-0.484112004138042	-5.01422166325913
2219200000	-0.480131638041176	-5.66852663393168
2220000000	-0.471462602355737	-6.28290808772654
2220800000	-0.467823834185291	-6.88773547490038
2221600000	-0.462468880293506	-7.47281402672142
2222400000	-0.458865956874203	-8.15286421718024
2223200000	-0.462381580202443	-8.78704889893262
2224000000	-0.457902332959503	-9.37801235459984
2224800000	-0.458076068146641	-10.0110148615577
2225600000	-0.453350322638973	-10.6249101500938
2226400000	-0.452017836625931	-11.242020866263
2227200000	-0.45161584860585	-11.8678179828027
2228000000	-0.44785229798186	-12.4768793382407
2228800000	-0.445551965333979	-13.1104532001976
2229600000	-0.44961853452713	-13.7199059011618
2230400000	-0.4538535324039	-14.3505948667488
2231200000	-0.460207846481287	-14.946776731259
2232000000	-0.446559148408557	-15.5572479604905
2232800000	-0.456003669633704	-16.1532331346921
2233600000	-0.4538093235099	-16.7551477317155
2234400000	-0.455248977520578	-17.3904375828384
2235200000	-0.457240007849514	-18.0032324222839
2236000000	-0.466482669886151	-18.6570649358327
2236800000	-0.47039125937361	-19.2111945925541
2237600000	-0.475850555035696	-19.8183518985468
2238400000	-0.482957642861415	-20.4196047410003
2239200000	-0.484453449607151	-21.0155554870966
2240000000	-0.499947706078195	-21.6227058671863
2240800000	-0.504133305442651	-22.240139149374
2241600000	-0.507186800894895	-22.8776140505154
2242400000	-0.521567883931449	-23.469296524581
2243200000	-0.527752549766831	-24.0564162747125
2244000000	-0.536503930783675	-24.6582221765023
2244800000	-0.547908372536795	-25.2842388054787
2245600000	-0.559972710655136	-25.893556626076
2246400000	-0.570782596345775	-26.4934581436282
2247200000	-0.577153100680305	-27.084840779185
2248000000	-0.596118468035881	-27.6873472945329
2248800000	-0.610573360761135	-28.3412976444003
2249600000	-0.621194720152389	-28.923593498455
2250400000	-0.637683921331456	-29.5350003196926
2251200000	-0.651228608355069	-30.1223325554185
2252000000	-0.662581507269541	-30.7466427397722
2252800000	-0.683483304311868	-31.410176144197
2253600000	-0.701634297666117	-32.0118649358912
2254400000	-0.712935203865338	-32.6382099498537
2255200000	-0.737269412778429	-33.2566222323822
2256000000	-0.749727814133939	-33.8574021145997
2256800000	-0.767352435573772	-34.4941347766119
2257600000	-0.789470467735395	-35.0694731263516
2258400000	-0.817508070267905	-35.7672510480203
2259200000	-0.8303216192831	-36.3369421062395
2260000000	-0.852539329545326	-36.9723996736224
2260800000	-0.873778147556255	-37.5441618593665
2261600000	-0.903877793011478	-38.2012251794109
2262400000	-0.920390259417785	-38.8465655571513
2263200000	-0.95267943008334	-39.4876824271067
2264000000	-0.968355941166985	-40.1215498506972
2264800000	-0.993867333196221	-40.7540890764847
2265600000	-1.01821258357705	-41.3599467780775
2266400000	-1.04057733566387	-42.0120006901029
2267200000	-1.0652532417277	-42.6369369248491
2268000000	-1.09332993648462	-43.291721731409
2268800000	-1.12508692771705	-43.9232128696012
2269600000	-1.15161277610481	-44.5712092461362
2270400000	-1.17462534068573	-45.1748254296222
2271200000	-1.20394999074811	-45.7992965582717
2272000000	-1.23183145476042	-46.4524399071182
2272800000	-1.26057616110668	-47.1185607303264
2273600000	-1.28411880992263	-47.7737374343496
2274400000	-1.30960525618621	-48.4197704041814
2275200000	-1.34042899213405	-49.0960864134581
2276000000	-1.37185331946892	-49.7284204572635
2276800000	-1.39311113237816	-50.4061465414734
2277600000	-1.42442576453839	-51.0761883855895
2278400000	-1.45643825487725	-51.751387971688
2279200000	-1.48482537176938	-52.3968144294146
2280000000	-1.51634250237424	-53.0922715859868
2280800000	-1.54716207088435	-53.7516218035811
2281600000	-1.5780713979646	-54.4498961354986
2282400000	-1.60573819053321	-55.1258423484918
2283200000	-1.63954983602481	-55.7923896891445
2284000000	-1.67251405338308	-56.4878137067941
2284800000	-1.70381909470237	-57.1628890799384
2285600000	-1.73655068525934	-57.8315675346575
2286400000	-1.76798394408057	-58.5060674502365
2287200000	-1.79945242327235	-59.2079487068364
2288000000	-1.82709371087677	-59.8765565735811
2288800000	-1.86228352175395	-60.5453519377755
2289600000	-1.89573488008741	-61.2357799082879
2290400000	-1.92708364347883	-61.9111591900072
2291200000	-1.95838320205583	-62.6300497912123
2292000000	-1.99114479967336	-63.290624637791
2292800000	-2.02622204925033	-63.9713052068741
2293600000	-2.05398441030939	-64.6655445935077
2294400000	-2.08946476636356	-65.3645744847872
2295200000	-2.11872798340807	-66.0507028568433
2296000000	-2.15088471326495	-66.7563387117809
2296800000	-2.18139167005115	-67.4435731940218
2297600000	-2.2159871883382	-68.1672791826471
2298400000	-2.24526348239776	-68.815872055809
2299200000	-2.27607253918578	-69.5784738976656
2300000000	-2.31345594334764	-70.2763732588294
2300800000	-2.34491315673022	-70.9584994102638
2301600000	-2.38484275162309	-71.7127982617328
2302400000	-2.41544694312066	-72.4313523033637
2303200000	-2.44996002492073	-73.1491461766468
2304000000	-2.48580966590862	-73.8847039937835
2304800000	-2.52080628826927	-74.5827337684514
2305600000	-2.55477775344298	-75.2823727019865
2306400000	-2.59060617086076	-76.0260668242717
2307200000	-2.62684436733721	-76.7501563494704
2308000000	-2.65829179366785	-77.4760009934819
2308800000	-2.69731938419061	-78.2029307737663
2309600000	-2.74095371015847	-78.9314126637657
2310400000	-2.77749409262908	-79.6675715910363
2311200000	-2.81364424412407	-80.4216161303226
2312000000	-2.85454905956128	-81.1354312885871
2312800000	-2.9011932589155	-81.8441831098433
2313600000	-2.94121043028046	-82.5974223998084
2314400000	-2.9813394660662	-83.3099607051838
2315200000	-3.02738500430677	-84.0142117276586
2316000000	-3.0664222466883	-84.7152680952682
2316800000	-3.110393716203	-85.4039386790684
2317600000	-3.15420175116694	-86.1269933548926
2318400000	-3.20162006104617	-86.8183834927812
2319200000	-3.24047610044731	-87.5293018698794
2320000000	-3.24096480833632	-88.2700721521927
2320800000	-3.28749767447476	-88.9242765434411
2321600000	-3.33103639012181	-89.6341295210393
2322400000	-3.37278403392094	-90.3562412162655
2323200000	-3.41527460795977	-91.0797869014099
2324000000	-3.46072788673987	-91.7530352434524
2324800000	-3.50333090791039	-92.4700096606436
2325600000	-3.54971826279271	-93.1907514924209
2326400000	-3.59500945698764	-93.8805636075243
2327200000	-3.644220286777	-94.5912119753466
2328000000	-3.68886537708916	-95.3234406889301
2328800000	-3.73533810721186	-96.0147488089116
2329600000	-3.78391718213844	-96.721315734605
2330400000	-3.83208852978423	-97.4483550145484
2331200000	-3.88030810820293	-98.2027157726207
2332000000	-3.92913988643145	-98.9223519811585
2332800000	-3.98007394718056	-99.6380853044557
2333600000	-4.0357848057444	-100.36498757736
2334400000	-4.09502176895799	-101.053763621744
2335200000	-4.14532429195748	-101.812801809502
2336000000	-4.20080407687902	-102.463590230358
2336800000	-4.25710870802406	-103.205125333543
2337600000	-4.31740850087564	-103.951794198444
2338400000	-4.37914313677003	-104.667851954928
2339200000	-4.44664844508629	-105.370338243523
2340000000	-4.50604392336012	-106.092269374403
2340800000	-4.57270473517483	-106.750652720123
