!Agilent N9923A: A.05.17
!Date: Sunday, 01 January 2006 12:19:46
!Model: N9923A
!Serial: MY50371189
!CHECKSUM:1158887488
!Correction: S11(ON U)
!S1P File: Measurement: S11:
# Hz S DB R 50
2000000000	-1.49039613649395	-24.5212282226378
2000800000	-1.47226279255991	-26.2592968709775
2001600000	-1.45323676374804	-28.0975906384613
2002400000	-1.42011707842262	-29.8153582935353
2003200000	-1.39648020751721	-31.5893170372505
2004000000	-1.38040576391204	-33.3231711046723
2004800000	-1.3579177599647	-35.0470764095717
2005600000	-1.3425071674408	-36.7644574063018
2006400000	-1.31573746288776	-38.479587379984
2007200000	-1.29906909660297	-40.1619384069544
2008000000	-1.27605148757619	-41.8693498173434
2008800000	-1.26128317419694	-43.5497388596464
2009600000	-1.24111211357809	-45.2260691931975
2010400000	-1.22254348837712	-46.8825044523753
2011200000	-1.20712164278644	-48.5518491990421
2012000000	-1.18582070593819	-50.1899655541005
2012800000	-1.17203641416594	-51.8220276055292
2013600000	-1.15302758940326	-53.452011860148
2014400000	-1.13664056247141	-55.0649924554214
2015200000	-1.11996666537903	-56.683745687481
2016000000	-1.10810783763676	-58.2851471337597
2016800000	-1.0933871962927	-59.8719300763933
2017600000	-1.07940962959143	-61.4777233241336
2018400000	-1.0629218085647	-63.0344458989103
2019200000	-1.05053020270051	-64.62685769066
2020000000	-1.0401122331545	-66.1771240220109
2020800000	-1.02816059276864	-67.7012128240144
2021600000	-1.01531803966378	-69.2974672775568
2022400000	-1.00545939894364	-70.8376255080817
2023200000	-0.99569510807851	-72.3863287381083
2024000000	-0.982603274481714	-73.8733615067333
2024800000	-0.975429996417281	-75.4252033695354
2025600000	-0.969637267502658	-76.9472351841914
2026400000	-0.955447167195928	-78.443063621625
2027200000	-0.951435699505727	-79.9496989110302
2028000000	-0.944930041890857	-81.4666213422478
2028800000	-0.937066194542984	-82.9662791619807
2029600000	-0.928537710746642	-84.4439874502232
2030400000	-0.922222946255101	-85.9301621581539
2031200000	-0.917237374911475	-87.426626671645
2032000000	-0.916998466438863	-88.9155313248123
2032800000	-0.90952381212044	-90.4006487826009
2033600000	-0.903491547673433	-91.9045298995505
2034400000	-0.909855701313557	-93.3407718917795
2035200000	-0.908130891658451	-94.8155148339024
2036000000	-0.903947372625337	-96.3077771148006
2036800000	-0.899324555038204	-97.7234503991338
2037600000	-0.894924748398832	-99.1682073684116
2038400000	-0.897456524501115	-100.596219016799
2039200000	-0.892050667951825	-102.052482432403
2040000000	-0.896075150207944	-103.465503136671
2040800000	-0.893072696000387	-104.902356796302
2041600000	-0.897205695586377	-106.300534714006
2042400000	-0.893581931645083	-107.726686836378
2043200000	-0.893324524718774	-109.165936136978
2044000000	-0.895413412543462	-110.567311981684
2044800000	-0.89775587531502	-111.994484561444
2045600000	-0.893400075047941	-113.439935229056
2046400000	-0.896946104387437	-114.846376657433
2047200000	-0.898421849705058	-116.245044435842
2048000000	-0.899312024808828	-117.656142809017
2048800000	-0.899292810436031	-119.054237560123
2049600000	-0.905318657480927	-120.452778530114
2050400000	-0.911789486068802	-121.85646248005
2051200000	-0.912983244418893	-123.288852386754
2052000000	-0.914401949253558	-124.633814031107
2052800000	-0.916783394060955	-126.020528278642
2053600000	-0.923820252288021	-127.414449929238
2054400000	-0.929173155409153	-128.77762867876
2055200000	-0.931792910299457	-130.172412441498
2056000000	-0.935749197294415	-131.527691198162
2056800000	-0.941435129706514	-132.891983321862
2057600000	-0.94327224149054	-134.308990965585
2058400000	-0.957222618828445	-135.618919110343
2059200000	-0.954149098231909	-137.025375014042
2060000000	-0.952243471276699	-138.354427924166
2060800000	-0.95989520820261	-139.740926620632
2061600000	-0.973175504778641	-141.120867117011
2062400000	-0.962826021857062	-142.417103088225
2063200000	-0.962699046911184	-143.801245249439
2064000000	-0.96472046819183	-145.25216621015
2064800000	-0.979582686979336	-146.586014812507
2065600000	-0.985486576758897	-147.944919528021
2066400000	-0.98125471978656	-149.26950106412
2067200000	-0.993540571849059	-150.608591129321
2068000000	-0.990955118399061	-151.952680393673
2068800000	-0.995239522932939	-153.312946573544
2069600000	-0.993609277816082	-154.667215343259
2070400000	-0.999518426328126	-155.974919332701
2071200000	-1.00778411951948	-157.258701266966
2072000000	-1.01014952376169	-158.57593249367
2072800000	-1.00098980196757	-159.917498018583
2073600000	-1.00979035609596	-161.19485912414
2074400000	-1.0046574347419	-162.517663414155
2075200000	-1.00738029539566	-163.811322471032
2076000000	-1.01107139868549	-165.1231978916
2076800000	-1.00923891521471	-166.438512715124
2077600000	-1.00574234934806	-167.7147236883
2078400000	-1.00160758295543	-168.968466539981
2079200000	-1.01139479737598	-170.253853510149
2080000000	-1.01033915517379	-171.593593633451
2080800000	-1.00732062291003	-172.848731051908
2081600000	-1.01543549562633	-174.105756517354
2082400000	-1.00714116980687	-175.428151224191
2083200000	-1.00414786258723	-176.718921248432
2084000000	-0.999238034270249	-177.943699455518
2084800000	-1.00129858358384	-179.209404358398
2085600000	-0.996215831666981	179.501487989238
2086400000	-0.994198737144194	178.266782970383
2087200000	-0.994790083705975	177.021487839376
2088000000	-0.988848499838021	175.78231070514
2088800000	-0.986910255774061	174.537254114137
2089600000	-0.979491908697866	173.321420490696
2090400000	-0.98020686564215	172.068847810033
2091200000	-0.967489198845321	170.861562710688
2092000000	-0.975726732152702	169.633306820869
2092800000	-0.965235670486597	168.415109087172
2093600000	-0.968859271445014	167.270048969512
2094400000	-0.961506871309757	165.976096858585
2095200000	-0.959610814351936	164.77470856745
2096000000	-0.957685072030535	163.561020265108
2096800000	-0.954871852517473	162.35020947726
2097600000	-0.952000005322329	161.182618855069
2098400000	-0.950011471485096	159.911742841818
2099200000	-0.949301457836394	158.770661535482
2100000000	-0.942891568886303	157.53796535206
2100800000	-0.944204387535019	156.377791021449
2101600000	-0.946508349886238	155.218328769765
2102400000	-0.936739099825907	154.019023998195
2103200000	-0.932097654044603	152.804412753986
2104000000	-0.936207526317995	151.627625605823
2104800000	-0.929246436573735	150.436113400852
2105600000	-0.934147796758252	149.225348408762
2106400000	-0.931088267912334	148.04267771492
2107200000	-0.932368355398419	146.845189463869
2108000000	-0.930510238157873	145.66743357539
2108800000	-0.933492721551103	144.468494138776
2109600000	-0.932043734191718	143.292055997537
2110400000	-0.939514197805825	142.113744808689
2111200000	-0.941130353131683	140.94015734185
2112000000	-0.946922284480119	139.731317816321
2112800000	-0.948672435845313	138.520640434911
2113600000	-0.955105070786319	137.332616905749
2114400000	-0.957915516493427	136.135535398138
2115200000	-0.966805818990695	134.93620936759
2116000000	-0.973739355954294	133.716376577433
2116800000	-0.977719049449637	132.4975188999
2117600000	-0.98921032184378	131.267548166955
2118400000	-0.996247419546328	130.090498228314
2119200000	-1.00536269359237	128.832767199233
2120000000	-1.01659703595161	127.585070895635
2120800000	-1.02709108480174	126.352396037132
2121600000	-1.04070590131958	125.105010710365
2122400000	-1.0543524788184	123.846049334827
2123200000	-1.06858272464916	122.595075395597
2124000000	-1.08206767259421	121.316572507725
2124800000	-1.09845216838088	120.025071993626
2125600000	-1.11540166335174	118.745681636159
2126400000	-1.1325374659433	117.449816772073
2127200000	-1.14773729786446	116.151471838799
2128000000	-1.17029825941377	114.816312704721
2128800000	-1.18963830579975	113.512507171315
2129600000	-1.21137516034522	112.174720574127
2130400000	-1.23053490904523	110.819686528744
2131200000	-1.25390651230629	109.466621438092
2132000000	-1.27746799196508	108.091487020771
2132800000	-1.30276075986918	106.698081661653
2133600000	-1.32805541814016	105.3155920636
2134400000	-1.3510499879401	103.906069866059
2135200000	-1.37773581317185	102.508993338959
2136000000	-1.40379086179084	101.068929681333
2136800000	-1.43460895848447	99.6332794797397
2137600000	-1.46219335362303	98.1653062129456
2138400000	-1.49714360228164	96.7475713518554
2139200000	-1.51958716096251	95.2024963749554
2140000000	-1.55316180645893	93.6910405437462
2140800000	-1.58988295382083	92.1889058086114
2141600000	-1.60569170567401	90.6504193892401
2142400000	-1.64494830087096	89.111022221575
2143200000	-1.68156640093915	87.5058651950073
2144000000	-1.72080889098808	85.9954859057284
2144800000	-1.75313025689551	84.3677128059428
2145600000	-1.79581481749897	82.7538798683452
2146400000	-1.82367260252913	81.0914520066068
2147200000	-1.85494307009846	79.4217725575493
2148000000	-1.88771409103173	77.7636743053783
2148800000	-1.92362469606818	76.0612331716697
2149600000	-1.96166975138063	74.2879691602916
2150400000	-1.99792649677341	72.6079078559559
2151200000	-2.02094412632679	70.8351572031568
2152000000	-2.05729435937056	69.1284293087977
2152800000	-2.09247748814759	67.2768224901825
2153600000	-2.11605788836765	65.5038830417386
2154400000	-2.15764113682754	63.7107041055298
2155200000	-2.18570479534718	61.8983109544068
2156000000	-2.22040640199562	59.9623279329778
2156800000	-2.2489279944947	58.0955431354181
2157600000	-2.27776532581907	56.2011016182253
2158400000	-2.30489757344563	54.2527973975231
2159200000	-2.32865966603678	52.3422854170436
2160000000	-2.32881423920667	50.4675339509021
2160800000	-2.3774068882133	48.3963909858596
2161600000	-2.39688493067802	46.3439499359855
2162400000	-2.40331897077751	44.5002897291503
2163200000	-2.41889344238384	42.4726038796402
2164000000	-2.44388930927318	40.4719066833251
2164800000	-2.45208152976197	38.4668900978927
2165600000	-2.46819910429357	36.4017727587404
2166400000	-2.47402818477638	34.3978179191051
2167200000	-2.47854072950593	32.3186274351441
2168000000	-2.48771538203145	30.283784743724
2168800000	-2.48371851494566	28.1963707653682
2169600000	-2.49368468362477	26.1502735051752
2170400000	-2.49197004488202	24.0600117008842
2171200000	-2.49409748921549	21.9616443134675
2172000000	-2.48109527160807	19.9153623526509
2172800000	-2.47613842574505	17.8337239642274
2173600000	-2.45962457328459	15.7369122883834
2174400000	-2.44828969442082	13.7211585545699
2175200000	-2.43575391129687	11.6420355564028
2176000000	-2.42122415423114	9.57641022577016
2176800000	-2.39969366620203	7.47443484576373
2177600000	-2.38164600750874	5.47515022140553
2178400000	-2.36293454907116	3.37188291420994
2179200000	-2.3379932974833	1.33159834192485
2180000000	-2.31201625028506	-0.714401276030298
2180800000	-2.2881157708826	-2.71222968574725
2181600000	-2.26713544172902	-4.72993408894524
2182400000	-2.23608268009932	-6.75002475489435
2183200000	-2.21242978189414	-8.75075433726693
2184000000	-2.18208510890169	-10.7460944404935
2184800000	-2.15285873267674	-12.7214879242874
2185600000	-2.11976312939742	-14.69847991369
2186400000	-2.09297947753783	-16.6830509036698
2187200000	-2.05842833319484	-18.6122320360032
2188000000	-2.02385249345478	-20.5758214616812
2188800000	-1.99927346684704	-22.4895186244228
2189600000	-1.9595087497317	-24.4049649354285
2190400000	-1.93536696208505	-26.3137299843154
2191200000	-1.89991671474069	-28.1913372810956
2192000000	-1.87207685220945	-30.1165250296982
2192800000	-1.84608810978929	-31.9868653888172
2193600000	-1.81328252301748	-33.8428181645819
2194400000	-1.78395320460287	-35.7067301111367
2195200000	-1.75098101356273	-37.5570680499181
2196000000	-1.72541017378021	-39.3787176010625
2196800000	-1.69747792136862	-41.2033432658276
2197600000	-1.66938580504456	-43.017149045274
2198400000	-1.64213506894672	-44.8074681254654
2199200000	-1.61853340625853	-46.5920019570243
2200000000	-1.59506388065261	-48.3583305578084
2200800000	-1.57100995233929	-50.1417786318621
2201600000	-1.54697124559726	-51.905190776267
2202400000	-1.52686826565597	-53.6411225332844
2203200000	-1.50680558337577	-55.3622891390511
2204000000	-1.48593168776339	-57.107432964916
2204800000	-1.4697768860227	-58.8318216056257
2205600000	-1.45058965282139	-60.549782901929
2206400000	-1.4381509792084	-62.2484999733989
2207200000	-1.42243271154172	-63.9283218758654
2208000000	-1.40814813722799	-65.6262620933746
2208800000	-1.39825531519058	-67.3187699691188
2209600000	-1.38902299184279	-68.9630505788895
2210400000	-1.37796885110071	-70.6529480832403
2211200000	-1.3727244707411	-72.330532141683
2212000000	-1.36151325422733	-73.9688156169826
2212800000	-1.36214114739781	-75.6096680103219
2213600000	-1.35554959581921	-77.2529996301656
2214400000	-1.34818947716931	-78.9056423127847
2215200000	-1.34246481012797	-80.5314484848961
2216000000	-1.34519748884856	-82.1566319150925
2216800000	-1.34757522013572	-83.7577197869613
2217600000	-1.35348384447288	-85.3645779078721
2218400000	-1.35399763748677	-87.0564053722142
2219200000	-1.35487121491754	-88.5558862633127
2220000000	-1.36011633454611	-90.1897120873365
2220800000	-1.36956434521529	-91.7708044845279
2221600000	-1.3766953363528	-93.3670842532588
2222400000	-1.38319757932575	-94.9439904919978
2223200000	-1.39627167619646	-96.5416452824493
2224000000	-1.3903469481365	-98.1771110005606
2224800000	-1.40728065362381	-99.7430154756436
2225600000	-1.41826786236226	-101.264478775813
2226400000	-1.42259285883761	-102.896158638957
2227200000	-1.43546135181098	-104.48887479365
2228000000	-1.44397955808888	-106.010172074455
2228800000	-1.45976698597533	-107.621528063103
2229600000	-1.47416944408987	-109.206452967502
2230400000	-1.48921847655806	-110.733022947506
2231200000	-1.49490294946388	-112.246896336534
2232000000	-1.5028854263081	-113.822708526486
2232800000	-1.52230280621552	-115.467164395316
2233600000	-1.52695838694572	-116.978321065805
2234400000	-1.54378194478415	-118.548748992383
2235200000	-1.55849701645179	-120.085934672298
2236000000	-1.56866529385002	-121.618233391143
2236800000	-1.57777057469362	-123.196630355052
2237600000	-1.59915920220878	-124.798400338149
2238400000	-1.60220796824074	-126.250233874923
2239200000	-1.61591975839984	-127.841385396859
2240000000	-1.63312710844821	-129.417758960349
2240800000	-1.63673665440485	-130.928336911624
2241600000	-1.65196824503068	-132.414401194259
2242400000	-1.65744135641466	-133.953607782207
2243200000	-1.66528262028993	-135.496410919319
2244000000	-1.67210724007053	-137.003573038108
2244800000	-1.67898808550787	-138.528750011432
2245600000	-1.68328776356604	-140.06191943256
2246400000	-1.69050158130315	-141.526589016322
2247200000	-1.69201485354679	-143.069934967021
2248000000	-1.69845467208718	-144.52238161457
2248800000	-1.70467017847831	-146.043401664685
2249600000	-1.70451757598932	-147.481897741205
2250400000	-1.70866235220329	-148.979579246715
2251200000	-1.70654970574425	-150.426184384038
2252000000	-1.70452781312051	-151.932200415647
2252800000	-1.70293217690905	-153.399089638194
2253600000	-1.70300787187309	-154.838186757035
2254400000	-1.69481253333845	-156.282092230627
2255200000	-1.69574465834973	-157.725580985788
2256000000	-1.69207950162011	-159.146027433387
2256800000	-1.687632142452	-160.563393153698
2257600000	-1.67798360200946	-161.989519861608
2258400000	-1.67873322979953	-163.421231333799
2259200000	-1.6676477485054	-164.814612929912
2260000000	-1.65678141414196	-166.226575783029
2260800000	-1.64537895817836	-167.598025404078
2261600000	-1.63479457604025	-168.944714240286
2262400000	-1.62766869141692	-170.343840658694
2263200000	-1.61293035814022	-171.712538875338
2264000000	-1.6034964195143	-173.072223673386
2264800000	-1.59455013621067	-174.400651534435
2265600000	-1.57979168090765	-175.768758484868
2266400000	-1.5656505436049	-177.094444414097
2267200000	-1.55224364837529	-178.429589892145
2268000000	-1.53613985164434	-179.737766421347
2268800000	-1.5243233311145	178.951726653781
2269600000	-1.50556817692423	177.615133416117
2270400000	-1.49087863140799	176.314741350609
2271200000	-1.47881391935157	174.984979403646
2272000000	-1.4714387319045	173.721763361107
2272800000	-1.45431905193353	172.393024742286
2273600000	-1.44464541328169	171.111632253764
2274400000	-1.42911654505407	169.82073289971
2275200000	-1.41065057362371	168.587971046871
2276000000	-1.39757051857388	167.335174090386
2276800000	-1.37959460200373	166.085829611291
2277600000	-1.36814886013076	164.884592031683
2278400000	-1.35262913631628	163.637515057974
2279200000	-1.33671269912395	162.390833079314
2280000000	-1.32284000369809	161.185962248681
2280800000	-1.31169921269386	159.965661741137
2281600000	-1.29835243338562	158.7687214118
2282400000	-1.28691139401179	157.504586038918
2283200000	-1.27519456641422	156.31452604304
2284000000	-1.2597198240234	155.103154561044
2284800000	-1.25086526790852	153.907213832579
2285600000	-1.23528743068226	152.707429005034
2286400000	-1.22759107409261	151.498961818106
2287200000	-1.21404988209239	150.319328900463
2288000000	-1.20572540539979	149.211197930007
2288800000	-1.19504081985726	147.997791684504
2289600000	-1.19059992498334	146.787542607943
2290400000	-1.18447804306767	145.593550069666
2291200000	-1.17162208819825	144.351830419204
2292000000	-1.17025882444875	143.224259265138
2292800000	-1.16330625799275	142.048155492869
2293600000	-1.15675902513584	140.852647915811
2294400000	-1.15427042290786	139.665719203442
2295200000	-1.15595159613843	138.508100426724
2296000000	-1.15600618979403	137.311998122339
2296800000	-1.15018530837649	136.150576882346
2297600000	-1.15484864862476	134.980387966919
2298400000	-1.17022672219833	133.794187806696
2299200000	-1.15892408663304	132.629896680879
2300000000	-1.1567322627861	131.417651749431
2300800000	-1.17479289839488	130.279660764248
2301600000	-1.17804631499647	129.1723961661
2302400000	-1.19086203759296	127.954029415355
2303200000	-1.1906627674888	126.745232686759
2304000000	-1.20963454825396	125.563109150512
2304800000	-1.21551181253966	124.393619345872
2305600000	-1.22792603160602	123.26613524138
2306400000	-1.24564512374502	122.065667398828
2307200000	-1.25516148398003	120.851531374959
2308000000	-1.2749702878882	119.660141802523
2308800000	-1.29438829872092	118.467691641877
2309600000	-1.30954416696531	117.208062628831
2310400000	-1.33214964915206	115.946765781988
2311200000	-1.35602320580639	114.705331515144
2312000000	-1.36729179801583	113.403561312312
2312800000	-1.40520307529859	112.141171133359
2313600000	-1.43009064429499	110.859689051489
2314400000	-1.45174771611731	109.567855030652
2315200000	-1.47948326077855	108.295274590457
2316000000	-1.50655663598572	107.035363976973
2316800000	-1.54126561764519	105.754075416175
2317600000	-1.56931610638004	104.428834037606
2318400000	-1.59527626133995	103.168575081277
2319200000	-1.6365721232617	101.795320074243
2320000000	-1.67480795888806	100.462094888523
2320800000	-1.72107803193203	99.1577838555275
2321600000	-1.76203421745893	97.7635271827842
2322400000	-1.79612329542183	96.4187401341487
2323200000	-1.83191376230796	95.0628431119145
2324000000	-1.87592971714505	93.6650832519031
2324800000	-1.92272153739492	92.2741793255717
2325600000	-1.96495427891488	90.863530235887
2326400000	-2.00862671819406	89.4655279756963
2327200000	-2.0582165421789	88.041870367639
2328000000	-2.10303428934796	86.5916519140117
2328800000	-2.15292182912043	85.1113813786297
2329600000	-2.20232763205923	83.6527441137393
2330400000	-2.25665680486783	82.1405423448314
2331200000	-2.31110442886723	80.591986136597
2332000000	-2.36159984122997	79.020555605068
2332800000	-2.41758018758035	77.452813531004
2333600000	-2.4695563416333	75.8763746090575
2334400000	-2.52455798357269	74.3188923853747
2335200000	-2.58162713994216	72.6873152048316
2336000000	-2.64204808121996	71.0577264204218
2336800000	-2.69877372454819	69.3564938024939
2337600000	-2.76126548466785	67.6722601797626
2338400000	-2.82054850163516	65.9580589845521
2339200000	-2.87724492806264	64.2657990051723
