!Agilent N9923A: A.05.17
!Date: Sunday, 01 January 2006 12:24:28
!Model: N9923A
!Serial: MY50371189
!CHECKSUM:0076550917
!Correction: S11(ON U)
!S1P File: Measurement: S11:
# Hz S RI R 50
2000000000	-0.531164131051445	-0.372137217033616
2000800000	-0.545791794693473	-0.344757063813309
2001600000	-0.558611163783112	-0.316792622254252
2002400000	-0.569679868386116	-0.287385250372165
2003200000	-0.579052831706478	-0.25694461462404
2004000000	-0.587637600298778	-0.227280806634679
2004800000	-0.594442649588238	-0.196968470378584
2005600000	-0.599175509955195	-0.165405038129034
2006400000	-0.603020830858473	-0.133931818473642
2007200000	-0.604893200551881	-0.102110466711487
2008000000	-0.605301271774998	-0.0701108329585981
2008800000	-0.603884544280058	-0.0379416871552715
2009600000	-0.600492951716452	-0.00559045719811109
2010400000	-0.59558828205691	0.0267893198040172
2011200000	-0.588920358292298	0.058597255563772
2012000000	-0.580008465591577	0.0903617737091703
2012800000	-0.569527710120071	0.12144436255228
2013600000	-0.557344487211543	0.152143627563345
2014400000	-0.543229521992541	0.182228928743671
2015200000	-0.527341702818299	0.211529829075505
2016000000	-0.510292519995372	0.240070223813053
2016800000	-0.49162306743911	0.267643428318592
2017600000	-0.471141347803509	0.294267126300934
2018400000	-0.44934371399722	0.320215035043986
2019200000	-0.426036464977362	0.344379211890653
2020000000	-0.400927185905211	0.367312288287459
2020800000	-0.374849108893326	0.389414504255338
2021600000	-0.347631866294991	0.408954119534191
2022400000	-0.318717560364474	0.427759419323253
2023200000	-0.288589384522634	0.444862730906749
2024000000	-0.258206950969742	0.459536909745502
2024800000	-0.226295570522396	0.473301153297027
2025600000	-0.194391120766141	0.484713412065725
2026400000	-0.161538857332232	0.494472699757617
2027200000	-0.128174881017204	0.502132298673115
2028000000	-0.0940113059338391	0.507878992766797
2028800000	-0.060483474149031	0.511708661931519
2029600000	-0.0266975582174944	0.51381223515377
2030400000	0.00781673691734266	0.513249477630728
2031200000	0.0417335942512407	0.511750991452515
2032000000	0.0762316560787093	0.506944711599692
2032800000	0.108872857076432	0.50141272871196
2033600000	0.142084474086972	0.493467034581349
2034400000	0.174778603660355	0.483840011072628
2035200000	0.206444701772906	0.472195704665213
2036000000	0.236991615422488	0.459403250024147
2036800000	0.267415384944043	0.444297452626874
2037600000	0.296299359179817	0.428196634167393
2038400000	0.324115279320069	0.410168170553788
2039200000	0.351382056432138	0.390106496266891
2040000000	0.377056305539246	0.368455936720733
2040800000	0.400997792758501	0.346177811578864
2041600000	0.424217052854504	0.323341448070582
2042400000	0.445503690258998	0.297736716219176
2043200000	0.465546970158225	0.271434248291595
2044000000	0.483589539858388	0.244699091404144
2044800000	0.500173237501804	0.217195188401661
2045600000	0.514874854977759	0.188570273979603
2046400000	0.528168123918427	0.159356162431122
2047200000	0.540116549630766	0.129573746128731
2048000000	0.549641628354566	0.0990863994926707
2048800000	0.557637667193288	0.0685575510403865
2049600000	0.564117029085849	0.0375686529063093
2050400000	0.568664559747383	0.0068531209799577
2051200000	0.571894731949219	-0.0243054238326775
2052000000	0.573347518183872	-0.0556830618619532
2052800000	0.572655954500439	-0.0869710772408746
2053600000	0.570692915978591	-0.117516491487354
2054400000	0.567113797547345	-0.148460584705611
2055200000	0.561842957452955	-0.179179471815687
2056000000	0.554703534264139	-0.209358942214144
2056800000	0.545988065236335	-0.2386815752907
2057600000	0.535373973579617	-0.267699614793408
2058400000	0.523695174837269	-0.296458970681272
2059200000	0.510146716834355	-0.323608744089483
2060000000	0.495145188205232	-0.350207748547878
2060800000	0.479154618255346	-0.376039739587937
2061600000	0.461867898723423	-0.400736720167306
2062400000	0.44269934027752	-0.424309024563756
2063200000	0.422647388588145	-0.446664358891468
2064000000	0.401943528769562	-0.467708129865527
2064800000	0.379981090758901	-0.488216099832383
2065600000	0.356857160283254	-0.507235247971695
2066400000	0.33290626608243	-0.524794249962616
2067200000	0.308328867559353	-0.541246184483706
2068000000	0.282723283983801	-0.556417597765464
2068800000	0.256322282484273	-0.570343842781001
2069600000	0.229526373227509	-0.582961542480439
2070400000	0.202446395090305	-0.5936962218437
2071200000	0.174908347415417	-0.603121646468557
2072000000	0.146833632250322	-0.611375074302227
2072800000	0.118168140007471	-0.618311365084285
2073600000	0.0894016814981576	-0.623255164915144
2074400000	0.0609885768062943	-0.62743570069612
2075200000	0.0320958160718355	-0.629545090592277
2076000000	0.00329767664390716	-0.630533618327188
2076800000	-0.0256017795721001	-0.630232439090144
2077600000	-0.0545545713012378	-0.629201269809149
2078400000	-0.0824975900805153	-0.6258990584973
2079200000	-0.110778919675869	-0.620950906300574
2080000000	-0.139354997676094	-0.614895521864488
2080800000	-0.166703316902239	-0.60791160568359
2081600000	-0.194635620712717	-0.598216272456909
2082400000	-0.220643176251405	-0.588799528041098
2083200000	-0.246773817889572	-0.577321315618205
2084000000	-0.271781141136178	-0.565663730249975
2084800000	-0.297278558094538	-0.551784163780304
2085600000	-0.321064261182837	-0.536888392176745
2086400000	-0.344485908930144	-0.521389607209313
2087200000	-0.366125894483017	-0.505083113998102
2088000000	-0.387726361173955	-0.487425843958281
2088800000	-0.408686056227458	-0.468627357958939
2089600000	-0.427963896402403	-0.449510671651107
2090400000	-0.446701146141383	-0.429462178097464
2091200000	-0.465050509960344	-0.409302096052811
2092000000	-0.480920152231017	-0.386486247550753
2092800000	-0.496970295139556	-0.365225030931457
2093600000	-0.510165429118647	-0.342223645665008
2094400000	-0.524392103344153	-0.317949903148177
2095200000	-0.536410578236768	-0.29370517592025
2096000000	-0.547665728061088	-0.269294662933937
2096800000	-0.557922877706468	-0.244093301509283
2097600000	-0.566600445286822	-0.218953340604743
2098400000	-0.574460040645328	-0.192420615237224
2099200000	-0.580007645254834	-0.167372108657332
2100000000	-0.58547967777388	-0.140584115751095
2100800000	-0.588929103690185	-0.114500600381696
2101600000	-0.590592297133546	-0.087971647825712
2102400000	-0.592668294567233	-0.0617489728689911
2103200000	-0.592403648315678	-0.0351054911610272
2104000000	-0.59052973007114	-0.00840722296723327
2104800000	-0.58782235033211	0.0174678954146218
2105600000	-0.583966503216383	0.0438564715174222
2106400000	-0.578604552162465	0.0700988002009051
2107200000	-0.571948007119217	0.0958896243304669
2108000000	-0.563728158283757	0.121138447521583
2108800000	-0.554122699015037	0.146361676623555
2109600000	-0.543595045567	0.170570258321344
2110400000	-0.531082935410965	0.194521989815932
2111200000	-0.517824162382949	0.217851005640322
2112000000	-0.50268655965298	0.239895832804642
2112800000	-0.486986816441502	0.261601382274473
2113600000	-0.470192420543335	0.28209344920591
2114400000	-0.451546772494017	0.301645977432707
2115200000	-0.431643454777376	0.320149507100788
2116000000	-0.41078191558027	0.337958177263602
2116800000	-0.389231127593479	0.354280363121061
2117600000	-0.36660698188034	0.369601208310299
2118400000	-0.342895713721152	0.383061856939125
2119200000	-0.318775949917706	0.395609374930529
2120000000	-0.293900211175391	0.406652133711426
2120800000	-0.268006611936827	0.416534727154688
2121600000	-0.242114639834596	0.424762397830932
2122400000	-0.215021482872181	0.431276090209481
2123200000	-0.187600510765189	0.436468212902577
2124000000	-0.159855099212754	0.440054467835104
2124800000	-0.131709380206432	0.44177587625007
2125600000	-0.103831106000031	0.441960389756901
2126400000	-0.0750928874905198	0.440160123211588
2127200000	-0.0472065781889138	0.436952684102056
2128000000	-0.019324034188774	0.431814392820831
2128800000	0.00842990557258459	0.424703301368645
2129600000	0.0358798023688763	0.41628596390138
2130400000	0.0628118756006954	0.405700811888728
2131200000	0.0884435224007277	0.393801452566329
2132000000	0.114269870436555	0.379892800826831
2132800000	0.138481434610128	0.364613827562406
2133600000	0.161766800966938	0.347980182931938
2134400000	0.184370717342439	0.329900310478112
2135200000	0.205275887009142	0.310977334968488
2136000000	0.225182418119583	0.291140816733514
2136800000	0.243925154531237	0.269506023077751
2137600000	0.261414512391985	0.247060383783993
2138400000	0.277304227694685	0.224948428295459
2139200000	0.29219171142572	0.200426288306337
2140000000	0.305120180015501	0.175793105067408
2140800000	0.317429669878921	0.151199376050699
2141600000	0.328509062901437	0.12489975435541
2142400000	0.337064679444368	0.098328239622445
2143200000	0.344961296671195	0.0714215686103319
2144000000	0.351028383850571	0.0461360485110119
2144800000	0.356194802243144	0.0184867408578712
2145600000	0.360113683378698	-0.0089636522205411
2146400000	0.362223019493577	-0.0361838252851039
2147200000	0.362840653555621	-0.0639269822199777
2148000000	0.361727063723563	-0.0915985293515595
2148800000	0.359515328784771	-0.119571107543641
2149600000	0.355213183539072	-0.146723052729499
2150400000	0.349869506720184	-0.173516456953267
2151200000	0.342329964670065	-0.20027659349745
2152000000	0.334278037397427	-0.225350386266763
2152800000	0.324385582422594	-0.250517475861932
2153600000	0.312972974980919	-0.27458926601907
2154400000	0.300474327732303	-0.297560710196904
2155200000	0.286674523122454	-0.319473233193484
2156000000	0.27243936366721	-0.340812885008839
2156800000	0.257318839859127	-0.361259992204786
2157600000	0.241604059430351	-0.380656024764485
2158400000	0.224751556110851	-0.398811885156413
2159200000	0.207246907356949	-0.416202113299694
2160000000	0.189212558484832	-0.433037637565603
2160800000	0.170032268217715	-0.447795438595727
2161600000	0.150434486174633	-0.461341212814014
2162400000	0.1309257040153	-0.473918369204253
2163200000	0.110620823288755	-0.485055397003319
2164000000	0.0900568147118433	-0.49575023860758
2164800000	0.0690094368859209	-0.505467082008032
2165600000	0.0476494151756367	-0.513973581818258
2166400000	0.0257405356992781	-0.521778549314086
2167200000	0.00367006451023793	-0.528061498705935
2168000000	-0.0188160364414548	-0.533076502936492
2168800000	-0.0413126714938805	-0.536927577200048
2169600000	-0.0639634917288845	-0.539159818843078
2170400000	-0.0866636654331956	-0.540241471357878
2171200000	-0.108954830291308	-0.540255572898632
2172000000	-0.131529299359008	-0.538951052609876
2172800000	-0.153820813162116	-0.536158721405098
2173600000	-0.175120965064574	-0.532349592801337
2174400000	-0.196598251666873	-0.527192332587564
2175200000	-0.217492299338885	-0.520792180094588
2176000000	-0.23792441518515	-0.513110672674661
2176800000	-0.257618569353849	-0.504668672387695
2177600000	-0.27670472003201	-0.494628905940856
2178400000	-0.2953538054977	-0.484080420132654
2179200000	-0.313014358218162	-0.472456434739603
2180000000	-0.330031907667747	-0.460155634376444
2180800000	-0.34675581017539	-0.446477185066343
2181600000	-0.362455588649536	-0.432549384553571
2182400000	-0.376649060694483	-0.417760421748647
2183200000	-0.390779982785794	-0.402625380664731
2184000000	-0.404025292967151	-0.386020504825239
2184800000	-0.416235820158745	-0.369389882118715
2185600000	-0.427349284735325	-0.352086616305233
2186400000	-0.437797798152449	-0.333976592141319
2187200000	-0.447374775340394	-0.315362948298461
2188000000	-0.456031445678923	-0.296421732776246
2188800000	-0.46411550703339	-0.276282550650049
2189600000	-0.470523488481409	-0.25592110236135
2190400000	-0.47621236238478	-0.235599415243522
2191200000	-0.480407126461709	-0.214499693138213
2192000000	-0.482643096803002	-0.192939678415292
2192800000	-0.484685531258899	-0.17164329907407
2193600000	-0.486245123471747	-0.150132785648621
2194400000	-0.48577176254547	-0.129580772280474
2195200000	-0.483976117715298	-0.108499475187206
2196000000	-0.481787534874117	-0.0869956826768186
2196800000	-0.478873961226931	-0.0661138260774637
2197600000	-0.473772467473627	-0.0449186789107381
2198400000	-0.469423209071598	-0.0245204887428072
2199200000	-0.461596985876536	-0.00366099907230674
2200000000	-0.454274997420312	0.0152197392567063
2200800000	-0.445738458620976	0.0351926838552627
2201600000	-0.436004791479734	0.0539511983562146
2202400000	-0.4265665009828	0.0729201373941005
2203200000	-0.416022455236311	0.0912349101243165
2204000000	-0.40421987429664	0.10883353956968
2204800000	-0.391849412251444	0.125740393725158
2205600000	-0.378075323120503	0.142601012946553
2206400000	-0.364209309319375	0.15861022543786
2207200000	-0.349273695898061	0.17399892217744
2208000000	-0.333316582962825	0.189295877405917
2208800000	-0.317166314672575	0.203046099279141
2209600000	-0.300228408933018	0.215924678969606
2210400000	-0.283061786353205	0.228360989688739
2211200000	-0.265310939422064	0.239221311475444
2212000000	-0.246970089921999	0.25016985429859
2212800000	-0.227756112457855	0.260419766836476
2213600000	-0.208503814539084	0.269154795886523
2214400000	-0.188961116504579	0.277251052435729
2215200000	-0.168852370419288	0.284609759829694
2216000000	-0.148159166139849	0.290289177718872
2216800000	-0.127660572324566	0.295329290627741
2217600000	-0.106746499822762	0.299592530223466
2218400000	-0.085787974161463	0.30272243026527
2219200000	-0.0646380477850371	0.304269841084014
2220000000	-0.0433146258024436	0.304953060501891
2220800000	-0.0221541092713106	0.304863914634496
2221600000	-0.00146674649559379	0.303511103929431
2222400000	0.0198469076044432	0.300468134168649
2223200000	0.0405484283627804	0.296465233902117
2224000000	0.0609644643657186	0.291502392035327
2224800000	0.0810565496395446	0.285405733072119
2225600000	0.100538787732927	0.278320680656768
2226400000	0.119732821766397	0.270108691438578
2227200000	0.137959125806682	0.260788532370304
2228000000	0.155891117144883	0.250027056774899
2228800000	0.173150031650077	0.238584400853094
2229600000	0.189089918586504	0.226262215694741
2230400000	0.204044662991447	0.212820056102943
2231200000	0.218295283729161	0.198440560604835
2232000000	0.231816563949343	0.183848270655813
2232800000	0.243813742127629	0.168580768567217
2233600000	0.254874766299853	0.152686455513286
2234400000	0.264817822431482	0.136210638675796
2235200000	0.273830630053328	0.119197778434151
2236000000	0.281730816076998	0.101802911827472
2236800000	0.288143786388824	0.0844187357825174
2237600000	0.293629289032256	0.067063358981401
2238400000	0.297890787821598	0.0485361827859056
2239200000	0.301180418477625	0.0312978419989861
2240000000	0.304326974506199	0.0123599430405536
2240800000	0.305214866376327	-0.00586372908697222
2241600000	0.305445560745458	-0.0236608773803271
2242400000	0.304457162615748	-0.0418868440342382
2243200000	0.302325676809845	-0.0598991274208425
2244000000	0.299353521146564	-0.0773618315866829
2244800000	0.294972753679542	-0.0949104785089568
2245600000	0.289517345139616	-0.111890729291207
2246400000	0.283569606968815	-0.128986984436232
2247200000	0.276088048508975	-0.145149214797303
2248000000	0.268167842882567	-0.161352414630785
2248800000	0.258181695132064	-0.176771870497384
2249600000	0.247958975842912	-0.191777844549905
2250400000	0.236072585086972	-0.205656960068025
2251200000	0.223528641314533	-0.218186680138842
2252000000	0.210244655654223	-0.230753814169442
2252800000	0.19584540138593	-0.241401937038456
2253600000	0.181415573977982	-0.25158934356063
2254400000	0.166695905739115	-0.260837448171467
2255200000	0.151310935352899	-0.26876962926738
2256000000	0.136422178160301	-0.275898090016725
2256800000	0.121193921092134	-0.281926898258462
2257600000	0.105529339735228	-0.287262063054862
2258400000	0.0896524454857549	-0.291878478746834
2259200000	0.0745607575603294	-0.295017552242888
2260000000	0.059574872158352	-0.297933831161705
2260800000	0.0439740558947736	-0.300483219664702
2261600000	0.0285064386681991	-0.301428056393191
2262400000	0.0138287491962844	-0.302357024088917
2263200000	-0.00116911935727277	-0.302773562192648
2264000000	-0.0160372670165598	-0.302779204054363
2264800000	-0.0308591804411369	-0.302421401786071
2265600000	-0.0454104708790365	-0.300941596783819
2266400000	-0.0601311468563269	-0.299414891579906
2267200000	-0.0742922432909723	-0.297365994798075
2268000000	-0.0888208976670803	-0.294743608685191
2268800000	-0.103165655835715	-0.291614257769869
2269600000	-0.117627757869451	-0.288147724380328
2270400000	-0.131813101559064	-0.28413142203959
2271200000	-0.145942414447103	-0.278758994269294
2272000000	-0.159581776158917	-0.273628415149016
2272800000	-0.173470487622408	-0.267550372915403
2273600000	-0.186459748954261	-0.260863703624966
2274400000	-0.199652253527315	-0.253415540893381
2275200000	-0.212749152723438	-0.245997489839445
2276000000	-0.225146986954187	-0.237505873958965
2276800000	-0.23734490206825	-0.228469670868244
2277600000	-0.248883972803933	-0.21923807566609
2278400000	-0.260700801565277	-0.209073683612607
2279200000	-0.271398480887439	-0.198497350801383
2280000000	-0.281409938043098	-0.187776359570138
2280800000	-0.291141459385646	-0.175938682803391
2281600000	-0.300065804308258	-0.164425816569076
2282400000	-0.308228262637707	-0.151655434376569
2283200000	-0.315495069101156	-0.13901443363224
2284000000	-0.322518950113768	-0.126148213651865
2284800000	-0.328568010416357	-0.112696568302196
2285600000	-0.33383548620758	-0.0992430993877058
2286400000	-0.3379791168316	-0.0854046845162598
2287200000	-0.342174757996131	-0.0719121444983307
2288000000	-0.345375941499711	-0.0586532931093217
2288800000	-0.347402946912519	-0.0448019090084132
2289600000	-0.348930998002215	-0.0309775742104023
2290400000	-0.349612446114989	-0.0172544596769099
2291200000	-0.349526989185051	-0.00322765792388659
2292000000	-0.34826751389274	0.00990191568638503
2292800000	-0.346651657914836	0.0229734165233936
2293600000	-0.344021631642337	0.0356704777486764
2294400000	-0.340858218778303	0.0484731731610533
2295200000	-0.336730313327852	0.0602627127002361
2296000000	-0.332061116559817	0.0719571545463196
2296800000	-0.326768874651345	0.0825945240663371
2297600000	-0.321043151920741	0.0933286577060291
2298400000	-0.314334699841007	0.103328690861921
2299200000	-0.307885266271067	0.112898551889645
2300000000	-0.300799452401416	0.122330717908804
2300800000	-0.292693745747301	0.130189595014756
2301600000	-0.285115162650726	0.13738139584992
2302400000	-0.276481647738979	0.144708953448265
2303200000	-0.267824028743557	0.15128689495738
2304000000	-0.258501426855865	0.156467273536207
2304800000	-0.249756571299516	0.161255269537542
2305600000	-0.240864401645391	0.164877840546244
2306400000	-0.231977210199784	0.168620991940003
2307200000	-0.222815241127533	0.172123467051813
2308000000	-0.213621483437147	0.174881490441601
2308800000	-0.204698043695667	0.176833867103944
2309600000	-0.19573663678797	0.178499634352023
2310400000	-0.18658568837833	0.180006993960489
2311200000	-0.178228858003244	0.180830165288704
2312000000	-0.168963699515135	0.181299784569225
2312800000	-0.160530705862977	0.181047276464464
2313600000	-0.151807613236496	0.181102831206131
2314400000	-0.143629457042934	0.180736724713183
2315200000	-0.135322965295507	0.180012694381015
2316000000	-0.126761961004085	0.178559238061465
2316800000	-0.118311184887883	0.177354685625768
2317600000	-0.109977407206282	0.175372414383375
2318400000	-0.101541697375322	0.173592247561438
2319200000	-0.0924373626959921	0.170813844380669
2320000000	-0.0844364722672731	0.167444763580886
2320800000	-0.0756205981680045	0.163728704684028
2321600000	-0.0670736758989078	0.159610238016083
2322400000	-0.0587258891989773	0.155062299498303
2323200000	-0.0511985726725657	0.150066735788504
2324000000	-0.0432130341782426	0.144339566709916
2324800000	-0.0359336995163712	0.138464542982345
2325600000	-0.0287348533134377	0.13234505473414
2326400000	-0.0220419349572384	0.125519465878368
2327200000	-0.01579618464802	0.118605118142079
