!Agilent N9923A: A.05.17
!Date: Sunday, 01 January 2006 13:46:49
!Model: N9923A
!Serial: MY50371189
!CHECKSUM:0832549578
!Correction: S11(ON U)S21(OFF)S12(OFF)S22(OFF)
!S2P File: Measurements:S11,S21,S12,S22:
# Hz S RI R 50
1000000000	0.0425233970578217	0.0105587529219992	0.402494580798851	-0.890953243987736	0.403067311850172	-0.890923068913639	0.0464462016965674	0.00631248898882335	
1002000000	0.0452401148077517	0.00854189719565181	0.343649023044398	-0.915018520703151	0.344714429899015	-0.915443161206872	0.0502218639967127	0.00325952811179599	
1004000000	0.0480053016704679	0.00655870289859591	0.28363715634546	-0.935278590388407	0.284489420853959	-0.935442406513912	0.0529119821990551	0.000115186859905983	
1006000000	0.0506216711593287	0.00362414371234499	0.222304348608452	-0.952030975959734	0.223184036644069	-0.952084794460928	0.0551227989809122	-0.00390853774879253	
1008000000	0.0526909606735201	0.000458252258276733	0.159826958028381	-0.964073840689854	0.160503102947729	-0.964417587009799	0.05678155064097	-0.00753574301833377	
1010000000	0.0544013418543981	-0.00233368026379173	0.0973545289239233	-0.97240891288136	0.0979604371955337	-0.972570764078527	0.0579803752073031	-0.0119859146168249	
1012000000	0.0555344433423657	-0.00593985161301034	0.0335239638087539	-0.977032692020629	0.0345135643131774	-0.97704395521174	0.0582667462423592	-0.01586893387139	
1014000000	0.0564151145263112	-0.00881234904038956	-0.0297008310914562	-0.976935612990676	-0.0290213271190667	-0.977037882182063	0.058682288229782	-0.0201636812115236	
1016000000	0.0567843214846341	-0.0123312605714769	-0.0930425588010332	-0.973076475703003	-0.0923829643898962	-0.973222239467463	0.0577775178793046	-0.0244304376072332	
1018000000	0.0567328930456054	-0.0156549942234872	-0.155767393632045	-0.96458282928458	-0.155196489424316	-0.965139146038674	0.056656635558697	-0.0283608603431118	
1020000000	0.0560689759820236	-0.0190442926192843	-0.218352776852894	-0.95231353884377	-0.217349052516229	-0.952913606613788	0.0547782006954382	-0.0323750737078335	
1022000000	0.0550558650190042	-0.0223006792769866	-0.279552295176089	-0.936595467005587	-0.278847507763931	-0.936869013988986	0.0524147502863412	-0.0358150998254349	
1024000000	0.0536989637475542	-0.0254384781635556	-0.339743895106577	-0.916194194015733	-0.338983555466832	-0.916981750148971	0.0496729881146059	-0.0393756082020964	
1026000000	0.0515581435377403	-0.0278549222792523	-0.398811995780259	-0.892553241690767	-0.397842554434023	-0.893026964053069	0.0464915433480482	-0.0419567335636951	
1028000000	0.0495949999721752	-0.0304767105930423	-0.455690831878614	-0.86453200137996	-0.455184399644148	-0.865212127585071	0.0428996070953036	-0.0442772759094183	
1030000000	0.0474236623504141	-0.0328353886171911	-0.510917824123792	-0.833205132695857	-0.510137780945624	-0.834044993124128	0.0390661790520111	-0.0462876391655949	
1032000000	0.0444543669872347	-0.0344053149465661	-0.564205677551149	-0.798238257398566	-0.563489560218704	-0.798953600774827	0.0345712517021173	-0.0474935688215713	
1034000000	0.0417480471085954	-0.0356121528180306	-0.614953403771316	-0.759929001909573	-0.614207658256829	-0.76078635862371	0.0306266735526354	-0.0483634104126024	
1036000000	0.0385156556304975	-0.0367797394974549	-0.663055732054337	-0.718315489443705	-0.662692907167122	-0.719511599867273	0.0260417729033942	-0.0486848485036603	
1038000000	0.0354280606803033	-0.0373643596418554	-0.708428611834102	-0.673829204411259	-0.707828415531042	-0.674572641753375	0.0216885502899499	-0.0479423705299003	
1040000000	0.0322422744887487	-0.0374909509605793	-0.750992865904245	-0.626396293606166	-0.750508679334496	-0.627493245091373	0.017412426376451	-0.0471115169309433	
1042000000	0.0291562154317051	-0.037324667269302	-0.790192265296401	-0.576368341589558	-0.789615934704764	-0.577271935012315	0.0133536013379363	-0.0460768093776131	
1044000000	0.025626031265783	-0.0368039296552657	-0.825923887530712	-0.523682613636907	-0.82552583038222	-0.524845891924332	0.00897619675694399	-0.044099433116065	
1046000000	0.0228464173564275	-0.0355350061807558	-0.858516731578982	-0.468673215516209	-0.858413565099137	-0.469902225537733	0.00566973029544082	-0.0417159867968446	
1048000000	0.0202370452454963	-0.0343649753322294	-0.8869901635995	-0.41184254513417	-0.887261040722124	-0.412870717544663	0.00233609898808791	-0.0393293945157032	
1050000000	0.0174028144585262	-0.032772656587229	-0.912291303093757	-0.353653360202976	-0.911839827205049	-0.354306279873318	-0.000789185174252603	-0.0358869735110568	
1052000000	0.0150656873966056	-0.0310796878554342	-0.933402802918529	-0.293639573294971	-0.933289323039179	-0.294057004212043	-0.00336978859885447	-0.0328073424433828	
1054000000	0.0130016253092424	-0.0290304959340018	-0.950514105102279	-0.231851250697129	-0.950753906010286	-0.232897260494457	-0.005441091038847	-0.0295693843003756	
1056000000	0.0110608841921193	-0.0266434212789678	-0.963717793811098	-0.169426242615824	-0.963551086290849	-0.170514082352418	-0.00697760364771297	-0.0257015607135814	
1058000000	0.00954115112880823	-0.0243030652764337	-0.972853276829056	-0.106163362604672	-0.972884674385546	-0.107048528150543	-0.0085050279483426	-0.0221275456663772	
1060000000	0.00846976946178554	-0.0222106806099514	-0.977697226667284	-0.0426766648352916	-0.978019715093442	-0.0435390318764641	-0.00914659037109441	-0.0184101446256355	
1062000000	0.00736839325196225	-0.0193089970436994	-0.978760991676253	0.0211050747533499	-0.978470266114301	0.0203192844902293	-0.00918939530349135	-0.0144996650898325	
1064000000	0.00671972636259865	-0.0164898069981493	-0.974941986907315	0.0847411619553615	-0.975464376374773	0.0840445181869338	-0.00911309392931995	-0.0109655972303708	
1066000000	0.00640779520767676	-0.014074689963822	-0.96754217237958	0.148238954524136	-0.967836730424218	0.14724358420394	-0.0083834373026858	-0.00759098104173296	
1068000000	0.00646904699248308	-0.0112405338897755	-0.955773597460132	0.211081623417943	-0.956214319190888	0.21008532513292	-0.00756107661271628	-0.00455337619248563	
1070000000	0.00655754437250504	-0.00901536632863799	-0.93999935890102	0.27263125786171	-0.940199955938195	0.271772663717528	-0.00603272118979124	-0.00163654032904224	
1072000000	0.00737551480795323	-0.00680821513152799	-0.919933710968038	0.333227899972543	-0.920529230645252	0.332493574948136	-0.00429624343819447	0.00108869446627551	
1074000000	0.00782466909195957	-0.00476854651927142	-0.896426469526484	0.392468622144673	-0.897220517490852	0.39188557001876	-0.00233780453588128	0.00321657998731531	
1076000000	0.00892992202547353	-0.00225177566588902	-0.86914532119233	0.450092876831633	-0.869813593114426	0.449374903122378	-0.00041678460483812	0.00505557213459219	
1078000000	0.0100055694944081	-0.000655435336799938	-0.837797916595841	0.505730359420606	-0.838708866902155	0.505046108943273	0.00209131590849244	0.00683832225527959	
1080000000	0.0110280306999247	0.000636802670224593	-0.803045666554558	0.559130008900485	-0.803754858397056	0.558606803129379	0.0048705292981791	0.00779760468710421	
1082000000	0.0126989226788838	0.00186291675115724	-0.764775324251576	0.610021191660784	-0.765958961357253	0.609666945351361	0.00754740591648301	0.00861921848388192	
1084000000	0.0144817683782499	0.00297622225150188	-0.723656511553024	0.65878570548805	-0.724620139096824	0.658051672310779	0.00987645614270048	0.00896872794467463	
1086000000	0.0160804791824136	0.00335753213744162	-0.679185653351839	0.704027054054274	-0.679734503472869	0.704072647372774	0.0124123601447757	0.00905049843950786	
1088000000	0.0178821397594799	0.00386391775017008	-0.6318476529948	0.746864410981999	-0.632439578998443	0.746458513557345	0.0153523789493281	0.00864260316527841	
1090000000	0.0196581600435889	0.00412465822221572	-0.582077020777943	0.786560151961739	-0.582474518822569	0.785843943509393	0.0176309986811212	0.00804422077352462	
1092000000	0.0211467455984135	0.00398564859581883	-0.529091754775344	0.822153177283473	-0.530192231341209	0.822237491981561	0.020084673269218	0.00704459941400905	
1094000000	0.0230521972685495	0.00350004060520503	-0.474517894369315	0.855165463538127	-0.47544009494436	0.854689855301819	0.0222258194090103	0.00544975670637975	
1096000000	0.0240123131405545	0.00266051410803347	-0.418239139607638	0.884213314672918	-0.418573712011472	0.884020669131547	0.0242742844114992	0.00340885070165515	
1098000000	0.0257935220675058	0.00190808618605477	-0.359886064578951	0.909521950043018	-0.36059907911115	0.909019406234374	0.0262607374240038	0.00154235371285302	
1100000000	0.0267853908387786	0.000810604226156447	-0.30001083825218	0.930770332726065	-0.300513151415077	0.930652178735015	0.0273984747126365	-0.000554224223124438	
1102000000	0.0282382330555416	-0.000466682172368942	-0.238302835918634	0.948008162331268	-0.239209344291397	0.94872391176133	0.028502664951252	-0.00296295146107768	
1104000000	0.0290774273724263	-0.0020178357058995	-0.176238247482294	0.961782637683983	-0.176946516161782	0.962026574528338	0.0292073759183716	-0.00562459978772232	
1106000000	0.0296068685731546	-0.00339585911329047	-0.113293032807828	0.971144639873938	-0.114165458263615	0.971114980912441	0.0296922485258675	-0.0084163014337205	
1108000000	0.0301104654841954	-0.00561499299822704	-0.0500069584374052	0.976555815336229	-0.0507284043149739	0.97658844315124	0.0301495972609556	-0.0107573644530609	
1110000000	0.0307539176338102	-0.0073553204464253	0.0138548933988843	0.977458503256949	0.0130173885518871	0.978240572775194	0.0300224188306174	-0.0135010234034483	
1112000000	0.0306689607837308	-0.00965298755245664	0.077389345353792	0.974697972661399	0.0766759332064971	0.974715282006102	0.0294217268764274	-0.0162283169933348	
1114000000	0.0305578456741889	-0.0118662784555759	0.140393456939245	0.967491434303958	0.139508729682144	0.967929406533638	0.0286000554237739	-0.01873357767016	
1116000000	0.0299476814143368	-0.0141334257214142	0.203317627815233	0.956236914484975	0.20227624213218	0.956482178861769	0.0274959845276714	-0.0211150856040418	
1118000000	0.0293445319379794	-0.0163868321662046	0.264912086990548	0.941038243803485	0.264218463573837	0.941572707386417	0.0264139598421201	-0.0236063287605822	
1120000000	0.0282030211975925	-0.0180507334430911	0.325465740469807	0.921654653762614	0.324817295688526	0.922138000933357	0.0247014127730763	-0.0252641748217306	
1122000000	0.0266196597838628	-0.020519972558175	0.385053815667133	0.898638734652951	0.384066391307998	0.899359169831992	0.0229089841858696	-0.027383621018487	
1124000000	0.0250278281524503	-0.0222402392455752	0.442548099662945	0.871500250013535	0.441869995137461	0.872560555897512	0.0211324992511914	-0.0287824527019431	
1126000000	0.022823410848144	-0.0239369290910892	0.49827948876747	0.840915881086658	0.497679423671941	0.842134630178799	0.018499576320415	-0.029859401525703	
1128000000	0.0207917121819342	-0.0255556720235425	0.552444852398724	0.807024537069657	0.551546649494923	0.807405308119363	0.0164048628699048	-0.0306317078313586	
1130000000	0.0184504130440375	-0.0269459909243819	0.603882256588426	0.769222989428804	0.603179201630102	0.770482008962349	0.0141749551735775	-0.0313761561433306	
1132000000	0.016033084151921	-0.0281131268053329	0.652134796097725	0.728189744378546	0.651721567323916	0.729356813979268	0.0117333936614699	-0.0317340601038229	
1134000000	0.0129901026497017	-0.0284904636940568	0.698241053772821	0.683996447235089	0.698039417614853	0.685409445018341	0.00954595397335588	-0.0315339285404565	
1136000000	0.00996127906367773	-0.0290557080284097	0.741443594617995	0.637509926649468	0.741245376282689	0.638877525514059	0.00740451127871158	-0.0308028973107849	
1138000000	0.0070754772951513	-0.0288428365532402	0.781452465387318	0.58822181727434	0.781159434523505	0.589067548521914	0.00518736103870421	-0.0299260591460791	
1140000000	0.00385835370170116	-0.0289536867744484	0.817955547682505	0.535846338073447	0.817792598400388	0.537009997350799	0.00318873573813175	-0.0284651941748572	
1142000000	0.00114838110670359	-0.0277756155457668	0.851503030066445	0.481899749132475	0.851197736175814	0.482705788363881	0.00182896568997934	-0.0266650058556051	
1144000000	-0.00185732923648073	-0.0268639355789126	0.880835841611145	0.425343013780633	0.88085102340166	0.426361465851614	-2.49462493368269E-05	-0.0249519324724641	
1146000000	-0.00473543953755303	-0.0251222232986642	0.906699734840995	0.366822777719843	0.906875404203518	0.368158018472313	-0.000908157521460439	-0.0223837980413591	
1148000000	-0.0075799192507017	-0.0235076626648551	0.928917266597813	0.306898749814028	0.928682386012176	0.307978224670132	-0.00159914763897873	-0.0206501847940615	
1150000000	-0.00966086826743518	-0.0208569143346293	0.946856529219965	0.245797257303758	0.94717616198466	0.247023703739654	-0.00170205915593753	-0.0175342496844833	
1152000000	-0.0120066499725142	-0.0185855816539299	0.960397407367844	0.183848731822568	0.960955643734084	0.184799361584862	-0.00178473508232391	-0.0144448539422994	
1154000000	-0.0138704924839088	-0.0148785304932771	0.970588067229536	0.120738413769597	0.970805295323677	0.121688134184584	-0.00128976816623914	-0.0112216499145723	
1156000000	-0.0153540155820061	-0.01153762843772	0.976087599779793	0.0573690691274674	0.976892094133704	0.0582032989452429	0.000155921519584198	-0.00867571802223825	
1158000000	-0.0164995283820253	-0.00813708834681243	0.977997070682436	-0.0064421897293327	0.978565198983565	-0.00558849468743626	0.00109879559546743	-0.00576336217359249	
1160000000	-0.0171991759291791	-0.00428281526859942	0.975204978654703	-0.0702639757846941	0.97589447242279	-0.0694283895833912	0.00388738244838061	-0.00248741782772598	
1162000000	-0.0168053643355018	-2.17057506640417E-05	0.96857792242671	-0.133218021105014	0.969672940801485	-0.132768559695879	0.00584498771107268	5.10093710811389E-05	
1164000000	-0.0160808790539749	0.00372106838774591	0.957505991828266	-0.196401072195523	0.958184962847924	-0.195657899416701	0.00881695163345069	0.00302100827050207	
1166000000	-0.0154163146817516	0.00826726371752496	0.942753066584127	-0.258317301850043	0.943438430306178	-0.257663746195164	0.0121670972131161	0.00484492400417845	
1168000000	-0.0137289403175991	0.0122277608446019	0.923696034991288	-0.319427725939518	0.924626284236532	-0.318526769808088	0.015992045113465	0.00683628596882166	
1170000000	-0.0115950676881586	0.0162474489886423	0.900695811015384	-0.378928785704586	0.901826518975707	-0.378192708694763	0.0204086817384856	0.00856643408525954	
1172000000	-0.00925917465743377	0.0205677875641746	0.874350346169842	-0.436540579004992	0.874946291955409	-0.436000472561235	0.0242246754678762	0.00914609104897736	
1174000000	-0.00583940960161872	0.0243463487958353	0.84350784216546	-0.492475144788147	0.844313542427764	-0.491911874891994	0.0291856499582399	0.0102267559034952	
1176000000	-0.00295638955557617	0.0275478339742099	0.80941643980665	-0.546591246037954	0.810368213819827	-0.546064675167365	0.0343289293832102	0.0100611939372072	
1178000000	0.00139481056817972	0.0309551591128492	0.771984078813578	-0.597902061191427	0.773025445702458	-0.597357382405456	0.0396616721882331	0.00984744433836389	
1180000000	0.00588377979990773	0.0338153538359832	0.731244427532961	-0.646583066383653	0.732246272248632	-0.646699465917989	0.0443530506632832	0.0086181499453314	
1182000000	0.0103474213922616	0.0361218716807014	0.68699452801218	-0.692691197771163	0.688288215196099	-0.692747863563551	0.0497061900508562	0.00724248603341441	
1184000000	0.0158757377430151	0.0380395768570429	0.640634013124895	-0.735884194110437	0.641547175994791	-0.735753349526756	0.0546242190035734	0.00475442867722674	
1186000000	0.0213586334151855	0.0392374376356132	0.591302568032223	-0.775887479118853	0.592109177151114	-0.775856740394748	0.059424713343174	0.00214276702020472	
1188000000	0.0269313880865126	0.0401194309838602	0.539434733106827	-0.812710251228646	0.540449635360622	-0.812635863121601	0.0640985040615294	-0.00117740188921738	
1190000000	0.0328337637510489	0.0403484212451307	0.485045267595865	-0.845707615779423	0.486366031599787	-0.845909424682444	0.0683063477504107	-0.00493240553666569	
1192000000	0.0387043078863641	0.0401272777691245	0.428909153437031	-0.875275561444745	0.430208288963207	-0.875457662111374	0.0721079932323013	-0.00914116917442456	
1194000000	0.0441728134884973	0.0396376278698349	0.371054310567199	-0.900951215712831	0.372410167516145	-0.901390210328302	0.0754601419279188	-0.0142428741794737	
1196000000	0.0504421075494864	0.0380060937883201	0.311734338287935	-0.922949747332398	0.312853100122367	-0.923335404991501	0.0781419239650555	-0.0192106313299117	
1198000000	0.0563035939406377	0.0363730271031759	0.251034810391849	-0.941013745507464	0.251937418096946	-0.941565719604111	0.080540735914021	-0.0246722079150331	
1200000000	0.0615597814739732	0.0339032003365121	0.189342495591358	-0.955290409053731	0.190308635102986	-0.955919400716716	0.0821287082953238	-0.030807636738022	
1202000000	0.0667394107814419	0.0301855096026767	0.127040291941776	-0.965025395135713	0.127737287275277	-0.96596493133502	0.0835109103765538	-0.0364342994475834	
1204000000	0.071928698857447	0.027115381104102	0.0640097241388076	-0.971153576730969	0.0650386746573647	-0.971702848309204	0.083691808411257	-0.0428460118783046	
1206000000	0.0763393659554413	0.023174183369187	0.000493890890920804	-0.973142165363673	0.00188229493686052	-0.97395965504303	0.0831752635235223	-0.0485138511799317	
1208000000	0.0804714597870437	0.0189405669522212	-0.0620194878142916	-0.971161491011695	-0.0615877738862707	-0.971838285824275	0.082654980343519	-0.0547187659726495	
1210000000	0.0841672821933764	0.0141135572689157	-0.124926604528087	-0.964495628478393	-0.124243904637267	-0.96547554874051	0.0804418086803413	-0.0605767373412738	
1212000000	0.0874416333657018	0.00899165917036805	-0.187490452788079	-0.954502311068834	-0.186408690590538	-0.955392927158482	0.0781323591756919	-0.0665057006741755	
1214000000	0.0902255505508235	0.00389870358290951	-0.248738249675392	-0.940317511094943	-0.248097414027685	-0.941185161132303	0.0752630571560837	-0.0721066651816547	
1216000000	0.0925042331143625	-0.00182551642506849	-0.309198145001743	-0.92235629891798	-0.308580966874004	-0.923135462427609	0.0716164918758445	-0.0768930754000409	
1218000000	0.0939450882877844	-0.00762720633547064	-0.368020300319942	-0.899906958397888	-0.367775620332838	-0.901085932853291	0.0673288410407436	-0.0814458007250203	
1220000000	0.095075411806452	-0.0132713654467514	-0.425877045326679	-0.874456038315986	-0.42523406553889	-0.875858632044964	0.0627343993252087	-0.0859109418943195	
1222000000	0.0953777437663387	-0.0187889716649962	-0.481325776077902	-0.844888438462009	-0.481455301292045	-0.845636955069576	0.0577896186375033	-0.0893420917044116	
1224000000	0.0954343966610156	-0.024779667084018	-0.534851423909638	-0.812127738699319	-0.535189280128308	-0.813119279981206	0.0522396642734242	-0.0928117954220206	
1226000000	0.0947379698858628	-0.0303695784017599	-0.586661488672828	-0.775604616281754	-0.586732408334442	-0.776625642829575	0.0464563038265161	-0.0949358150107076	
1228000000	0.093340046694254	-0.0360225014411128	-0.635956436974414	-0.735985324651236	-0.635862309032725	-0.736960399665152	0.0398943570747643	-0.0968529974485936	
1230000000	0.0912536634044533	-0.0413185699976189	-0.681958887034088	-0.692502578926908	-0.682522914647095	-0.694161127908034	0.0341546225946193	-0.0979721113248985	
1232000000	0.0894931025758835	-0.0464492683513952	-0.725825960939581	-0.647841260277252	-0.72594420324138	-0.648638053099444	0.0280275693505954	-0.0989256962153436	
1234000000	0.0862185900610379	-0.051280989524173	-0.766314708181098	-0.598935260889088	-0.766537838629899	-0.599899320688792	0.0214587702798652	-0.0985575576957398	
1236000000	0.0830127239065083	-0.056165218031891	-0.803466199838111	-0.54836436360829	-0.803928478457174	-0.549331234458652	0.015136828188163	-0.0981094435482428	
1238000000	0.0788223972269876	-0.0597421566939072	-0.837466881859274	-0.495021087879956	-0.838020397397225	-0.495904461625754	0.00870897993294243	-0.0964025123689825	
