!Agilent N9923A: A.05.17
!Date: Sunday, 01 January 2006 13:48:00
!Model: N9923A
!Serial: MY50371189
!CHECKSUM:0463551391
!Correction: S11(ON U)S21(OFF)S12(OFF)S22(OFF)
!S2P File: Measurements:S11,S21,S12,S22:
# Hz S RI R 50
1000000000	0.0244640256379443	-0.0195195187123698	0.189391870688625	-0.851234221022258	0.189717575473787	-0.851268134459496	0.0135215243596292	-0.0122562847862973	
1002000000	0.0370178322191176	-0.0188518300598776	0.0781181552932182	-0.868005005483914	0.0791260875576427	-0.868150006187638	0.0283955362502497	-0.0150049232551701	
1004000000	0.0495864169560698	-0.021505043847797	-0.0342812814176127	-0.870379168972484	-0.0334691043292079	-0.87069169440074	0.0412975826681988	-0.0208362199202501	
1006000000	0.0606029528108613	-0.0278583875366653	-0.14551491423392	-0.858302016974884	-0.144690782758131	-0.858400451108358	0.051819005728414	-0.03011908657938	
1008000000	0.0695608187354447	-0.0364900442356533	-0.253864016417777	-0.831406019254806	-0.253405036514749	-0.832198501617388	0.0600500534882465	-0.0413444190557327	
1010000000	0.0761177563729524	-0.0466793510045138	-0.357744908893398	-0.791758117925659	-0.357317363664749	-0.792112789315059	0.0645312187884402	-0.0542188275570966	
1012000000	0.0793610183513713	-0.0588611863232407	-0.455599930765825	-0.73879302936993	-0.455359028989099	-0.739298901683914	0.0656499514197401	-0.0674951936184403	
1014000000	0.0799672548682455	-0.0710058552848649	-0.545360686087265	-0.67378871777114	-0.545255061807869	-0.674663006999419	0.063604298153729	-0.0809065098181758	
1016000000	0.0769692513909354	-0.0826897779649773	-0.626258116601712	-0.598472024804437	-0.626326356772662	-0.59912902074923	0.0578052800049991	-0.0926345514903867	
1018000000	0.0711936054319435	-0.0936063793265468	-0.696867200573493	-0.513725121516224	-0.696795981784978	-0.514482779050106	0.0492141639958667	-0.102882012852566	
1020000000	0.0626331329777177	-0.102332622565581	-0.756557123026117	-0.420474692606666	-0.756260020570746	-0.421525871434382	0.0384993516017911	-0.110087357358521	
1022000000	0.0522412755181942	-0.108438191729809	-0.803742992461164	-0.321261412160399	-0.803582309581495	-0.322019621573133	0.0261402806535555	-0.114216087920133	
1024000000	0.040401698864168	-0.112448683880873	-0.837978863928378	-0.216513471460762	-0.837937594384447	-0.217378277405894	0.0129429417681661	-0.115406091573217	
1026000000	0.0288322900769824	-0.112793465473622	-0.859179548010801	-0.107911049666258	-0.85905096711244	-0.109021414464745	0.000333126927476186	-0.112584401966222	
1028000000	0.0166253929520098	-0.110289096217755	-0.866157071904984	0.00203968562410202	-0.866667956611848	0.00128446818284889	-0.0115863881419211	-0.106970275302833	
1030000000	0.00566750806359006	-0.104750838919169	-0.859307703009588	0.112394515604708	-0.859394799156718	0.111830854729449	-0.0216086933505263	-0.098717692525291	
1032000000	-0.00350619221235498	-0.0964021545325349	-0.838286886053525	0.221432153056672	-0.838911256502811	0.22085735305484	-0.0290322211086866	-0.0879975498020387	
1034000000	-0.0101400815426807	-0.0862482217296735	-0.803559775752868	0.327135000051192	-0.804354148095014	0.326317855761332	-0.0336900190741628	-0.0757738409590282	
1036000000	-0.0143511846528496	-0.0745434868521889	-0.755578306597493	0.427592220971832	-0.756373863341953	0.427301000801491	-0.0345534371952822	-0.062381764649708	
1038000000	-0.0152935420526783	-0.0619444318574439	-0.695098964730463	0.521223830056472	-0.695525603145326	0.520874154367372	-0.0324367977127509	-0.0496008359854334	
1040000000	-0.0130727001988724	-0.0497809319552814	-0.622343944867902	0.606860495706245	-0.623144613694096	0.606118649190536	-0.0269199188854844	-0.0379920915113208	
1042000000	-0.00763543823472246	-0.0379399881881305	-0.539599232420809	0.682166031982543	-0.540015646544411	0.681615014212075	-0.0189634598715642	-0.0278781329809441	
1044000000	0.000184253519525349	-0.0282329229157518	-0.447211750197925	0.745793264911888	-0.448115915689026	0.745491139037462	-0.00807930212448868	-0.0202057634760777	
1046000000	0.0107155852833925	-0.0202817347807012	-0.34727193496458	0.797095598411974	-0.348200981831265	0.797023615934688	0.00393300791727271	-0.0158117108660607	
1048000000	0.0227550312852396	-0.0153153781107359	-0.241500188592111	0.835075088856553	-0.242463448915098	0.83514249986827	0.0171506244325338	-0.0145183156195639	
1050000000	0.0354604446905777	-0.0134958966396542	-0.132033929463744	0.858820136849299	-0.132909712924709	0.858812702068067	0.0299928637344266	-0.0172825034983008	
1052000000	0.0490331831084994	-0.0145820550385072	-0.0206107240664481	0.867774690706721	-0.0211373404147908	0.867993849615308	0.0419922986050087	-0.023232259223159	
1054000000	0.0615556168359181	-0.0189441764083045	0.0911245881371073	0.862624893418284	0.0905712644716204	0.86283196274946	0.052118907724492	-0.031728080014613	
1056000000	0.0730974630408575	-0.0260361571747132	0.201123453546502	0.843048744892446	0.200202654759447	0.842997536431559	0.0594606087008941	-0.0435075508601268	
1058000000	0.0822830013086535	-0.0356714953890429	0.306923025376452	0.809233606478605	0.306248459387324	0.809960719027012	0.0641514240690433	-0.0564543072480235	
1060000000	0.0891080344301167	-0.0471919877161881	0.407390778854965	0.762409702130366	0.406632318251798	0.763171028466866	0.0652462869829164	-0.0705252849591824	
1062000000	0.0931645813528016	-0.0599918046537096	0.501060598399571	0.703918015071458	0.500370316793329	0.704199916954071	0.0622294494752678	-0.0846373232964261	
1064000000	0.0942325830017405	-0.0734587345322276	0.585695131812568	0.633359361322635	0.585420807231024	0.633983806827071	0.0562657511405525	-0.0979451145499256	
1066000000	0.0922621791865577	-0.0865299299081456	0.66094138664844	0.553326196895049	0.660811680338421	0.553937598268467	0.0469991874626411	-0.109658601910409	
1068000000	0.087187122595354	-0.0989640782199041	0.72582967039357	0.464434625079078	0.725524269859539	0.46489764551877	0.0347216190879543	-0.118931667047079	
1070000000	0.0798267275000574	-0.109642422271056	0.778151592624151	0.368517261834342	0.777842021973873	0.369181784624043	0.020939684710248	-0.125171324375844	
1072000000	0.0700188477747196	-0.118106288152885	0.81825686984148	0.266467753469463	0.81832636295183	0.267235102646331	0.00542482029844249	-0.128108273467283	
1074000000	0.0587432398466499	-0.12446745485045	0.845743448361267	0.160417507491215	0.845680448470755	0.161180884694456	-0.0103902811035447	-0.127480746226177	
1076000000	0.0465651667253628	-0.127276702329337	0.859353930705574	0.0517593410725972	0.859610726863537	0.0525851022490366	-0.0258556796518988	-0.123128311124611	
1078000000	0.0340236341953854	-0.127686858590565	0.859023334598392	-0.0578226773622594	0.859627526757278	-0.0570592042386551	-0.0398829800338387	-0.115300565970851	
1080000000	0.0219247391201708	-0.125219036210734	0.845135037033206	-0.166760670690914	0.845778450670937	-0.166365544745669	-0.0517569642682039	-0.104493246021924	
1082000000	0.0114248713073214	-0.119806346441999	0.817463198462834	-0.273160271048162	0.818100084449325	-0.272522123548149	-0.0608983920245934	-0.0911782377687516	
1084000000	0.00256552638028133	-0.112257673626748	0.776766967523015	-0.37535745803473	0.777008081968641	-0.374814156088013	-0.0666854352584298	-0.0764599160910168	
1086000000	-0.0042966215203785	-0.102924758329779	0.722730067173059	-0.471904905140791	0.723625850327924	-0.471573087349965	-0.0688604862739683	-0.0603603319284943	
1088000000	-0.00863880450236704	-0.0922123516140731	0.657185641523789	-0.561081720677843	0.657747267961338	-0.560999809527122	-0.0670201833796565	-0.0444603665818905	
1090000000	-0.00965106740327036	-0.0810500103397248	0.580221446259882	-0.641224803894616	0.580392447725569	-0.641106187411397	-0.0615025844061979	-0.0293966989369744	
1092000000	-0.00824676025893373	-0.0701608031265527	0.493067590591382	-0.710702981181718	0.494071037831911	-0.710542567166886	-0.0525559364141193	-0.0164701574190873	
1094000000	-0.00400590498372254	-0.0600873521266833	0.397619918584535	-0.768785966629443	0.398620287546795	-0.768240859717097	-0.0408277496429722	-0.00620020318769147	
1096000000	0.00243411250279628	-0.051703623777671	0.295696778837093	-0.813710880063669	0.296667188487472	-0.813417333159469	-0.0269148300099355	0.000333063601771381	
1098000000	0.0110201266698239	-0.0454455395019436	0.18855399966948	-0.845147050983175	0.189331512245069	-0.844877210131299	-0.0116802307550505	0.00366772724281623	
1100000000	0.020378369020187	-0.0413412695586294	0.0783446806156892	-0.862197640276609	0.0788334865641864	-0.861970724784372	0.00354073284884495	0.00289546027950202	
1102000000	0.0312230081204132	-0.0403085358579499	-0.033693848416878	-0.864420352074777	-0.0328127097249466	-0.865143875056821	0.0178799785085084	-0.00164879585611081	
1104000000	0.041258625217281	-0.0416250790832017	-0.144512067129156	-0.852741118044398	-0.143782425034883	-0.853042553371716	0.0305794446291317	-0.00984326508299142	
1106000000	0.0505767635996697	-0.0455096363615916	-0.252796222612654	-0.826490039286947	-0.252017577268154	-0.826566591799261	0.041153339286266	-0.0209400370967476	
1108000000	0.0587054745298838	-0.0522285957144226	-0.356324424012874	-0.7865546841717	-0.355816687014217	-0.786790562389277	0.0484050386805401	-0.0343979334354038	
1110000000	0.0647742668420353	-0.060615880979197	-0.453823965109626	-0.733589086248008	-0.453244905538243	-0.734496732130017	0.0518644289101524	-0.0494218861601125	
1112000000	0.0685568236247063	-0.0703098894075146	-0.543158157635738	-0.668800417841776	-0.54300576540832	-0.669265645469944	0.0514359317576229	-0.064652957158063	
1114000000	0.0695965668624141	-0.0803820363719936	-0.623725068705396	-0.59340841834092	-0.623231424268972	-0.594010555345185	0.0469725377745756	-0.0792501227223571	
1116000000	0.0680448104687468	-0.0907324032225114	-0.693666042222242	-0.508705855720911	-0.693130604483714	-0.509253571215905	0.0388972064148814	-0.0928309970335919	
1118000000	0.0643054960607243	-0.100392134816526	-0.751702314671426	-0.415484427167039	-0.752067769948403	-0.416234400269959	0.027850032517281	-0.10386160759645	
1120000000	0.058223498100611	-0.108259933415851	-0.798195873884096	-0.316392702120031	-0.79842685649726	-0.317206516258584	0.014576389547955	-0.111546612924974	
1122000000	0.0498736406334981	-0.114771978872367	-0.83184275312702	-0.21224360979975	-0.831739685296788	-0.213166796182081	-0.000900739059160244	-0.115542855573373	
1124000000	0.040787742985057	-0.118993844560853	-0.85156345115364	-0.104870536962239	-0.852133527512227	-0.105481708234245	-0.0165207738031554	-0.115747928802264	
1126000000	0.0307606186409485	-0.120325107303375	-0.858003716974575	0.00435087157657301	-0.858461430336792	0.00345913626091215	-0.0320356672239037	-0.112076443229624	
1128000000	0.0209163186945967	-0.119574782768768	-0.850745360680197	0.113515849287839	-0.851391823386334	0.112723073135874	-0.0463162467813649	-0.104839000870267	
1130000000	0.0117829697642003	-0.116641947760642	-0.829562852135109	0.220853261436355	-0.830360674909908	0.220057273571014	-0.0584516495752685	-0.0936830431264933	
1132000000	0.00372975617326887	-0.111213816370589	-0.795337622212026	0.324860420863428	-0.796061754568242	0.324346255025428	-0.0671608496093848	-0.0803173728328343	
1134000000	-0.00215503624354857	-0.104155819240541	-0.747582512749989	0.423844576328427	-0.748512446828972	0.423689804039277	-0.0723919654777103	-0.0640917469300132	
1136000000	-0.00614914551275401	-0.0960965751385879	-0.687635726128977	0.516388991102321	-0.688606861246594	0.516119392685435	-0.0739291950644644	-0.0472916185931816	
1138000000	-0.00757590654921108	-0.0871298933989245	-0.616285089347935	0.600664568650192	-0.61740826554043	0.600585841466825	-0.0707493384634011	-0.03084707168964	
1140000000	-0.00665689186428597	-0.0787120564084996	-0.534454090765221	0.675009362807505	-0.535797368531693	0.675060286734976	-0.0639672833486143	-0.0148814798627755	
1142000000	-0.00344723973008197	-0.0704083138448576	-0.443587734185388	0.738596370310808	-0.444536162445623	0.738470337081936	-0.053023418257507	-0.00153176512193697	
1144000000	0.00203431656537684	-0.0643496338574876	-0.345277259177234	0.789545273911488	-0.346040776755169	0.789612995915506	-0.0388357131437563	0.00943979096918109	
1146000000	0.00908881125752385	-0.0598808156884914	-0.240775833774085	0.827193155198909	-0.241776703424001	0.827850408411141	-0.0225649749281886	0.016478920972567	
1148000000	0.0176055172788309	-0.0575162452513616	-0.132479806518587	0.851374894326304	-0.133049586300008	0.851620364318468	-0.00473234697706276	0.0196755527026649	
1150000000	0.0255534968831759	-0.0578546477793125	-0.021686052609172	0.860754956102781	-0.022251648101366	0.861562741267756	0.0131325320097559	0.0186007426804084	
1152000000	0.0336113244960438	-0.0607407255937276	0.0887528789059472	0.855895999314706	0.0881827759533487	0.856500713022393	0.0303599418799425	0.012786895909719	
1154000000	0.0405593221091679	-0.066138045129015	0.198088084385391	0.836694296440617	0.197458839025915	0.837392396326891	0.0456667789751683	0.0034515972499018	
1156000000	0.0462867688740905	-0.0733590903280133	0.303380226060952	0.803661530423053	0.302882581261734	0.804541432110102	0.0584331164398015	-0.00924305090509947	
1158000000	0.0498072473076316	-0.0823330593969576	0.40354436598159	0.7572062272608	0.403106987491013	0.758176772499059	0.0678446099879597	-0.0246363253732201	
1160000000	0.0505587940846556	-0.0920173748278289	0.496437418219178	0.699106479662028	0.495956500936911	0.699669416302383	0.0730532024786757	-0.041027418464447	
1162000000	0.0489200477343971	-0.102025967439782	0.580640039031463	0.629031840079345	0.581132850636118	0.630068636172643	0.0749340409995046	-0.0584171576514626	
1164000000	0.0443578993109799	-0.111489662362496	0.655850054505071	0.549373211857589	0.655652209327829	0.550306402787963	0.0719904284673368	-0.0753095757961657	
1166000000	0.0370818860845924	-0.119794337613296	0.719470926543038	0.461093017282011	0.719555513231188	0.461923504159158	0.065624341005621	-0.0909289204373069	
1168000000	0.0282912006903954	-0.126402407835001	0.771813758230374	0.365674619279499	0.771657574193605	0.366638612097301	0.0556352803664532	-0.103949571523827	
1170000000	0.0179110896245046	-0.130560214547841	0.811942691240899	0.264363743222833	0.812098480826271	0.265176769906313	0.0432565489726667	-0.11384923486803	
1172000000	0.00632611006251708	-0.13248367170345	0.838155608310596	0.159622612427388	0.83876340252389	0.160097729458255	0.0286249420305183	-0.120901642745855	
1174000000	-0.00563272658015778	-0.130997906547526	0.852148725564832	0.0516613052355006	0.852238718187169	0.0524941450614657	0.0136598129169014	-0.123069513644682	
1176000000	-0.0170692981672521	-0.127418843491746	0.85189553355803	-0.0569472613525561	0.852166993123005	-0.0564586916371826	-0.00141423085207362	-0.122097367600811	
1178000000	-0.0272708017039156	-0.120227245380369	0.838082986151868	-0.164958760196487	0.838553451787719	-0.163974310360342	-0.0150063454178951	-0.116679973539512	
1180000000	-0.0352876309894319	-0.111264898955296	0.810740132927889	-0.270092574117581	0.811353291637009	-0.269706941530941	-0.0272077378204328	-0.108763889823792	
1182000000	-0.0418357104932656	-0.100431671350979	0.770131340641538	-0.371956335347533	0.770866019003051	-0.371433594529641	-0.0363114781066808	-0.0973409877200152	
1184000000	-0.0446850489671318	-0.0880329499369164	0.716895013705153	-0.467575832405026	0.717555120121342	-0.467156303021708	-0.0421315151687982	-0.0843934325138287	
1186000000	-0.0446838355494568	-0.0753895793353085	0.651637917372029	-0.555868436061063	0.652659777460891	-0.555880894303492	-0.0444860057843401	-0.0702276273109273	
1188000000	-0.0415160288459784	-0.0630629699997145	0.575367970203862	-0.635564499333425	0.576285679133226	-0.635658067502072	-0.0428004765286763	-0.0559367537351318	
1190000000	-0.0349902214918459	-0.0516438916453025	0.489255013100925	-0.704576947894778	0.49026094726483	-0.704680485718833	-0.0371948812727846	-0.0424883170990921	
1192000000	-0.026023989834822	-0.0421780816159891	0.394730025072273	-0.762025071521479	0.39551896230915	-0.762446834390885	-0.0286024032685284	-0.0307819733340657	
1194000000	-0.0150734831676803	-0.034951435763833	0.293078078296584	-0.806657057667013	0.294059245454075	-0.807025004460413	-0.0168873176841183	-0.0221662136859184	
1196000000	-0.00210530416652917	-0.0308260343007186	0.186641379434112	-0.837769803192672	0.187716155599915	-0.838328694448009	-0.0034104676890748	-0.0163391100634011	
1198000000	0.011475697433128	-0.0299351376259471	0.0771681301934106	-0.854682835988991	0.0780970832201349	-0.855301421565535	0.0112218190173019	-0.0145455839387132	
1200000000	0.0247480187746079	-0.0323946165254214	-0.0336485581997258	-0.857144361770497	-0.033067331189039	-0.857793686233393	0.026105300050737	-0.0165451565933881	
1202000000	0.0371294709236635	-0.0384457960020283	-0.143601216783339	-0.844973378243527	-0.142860702891531	-0.845986047657296	0.0403434245747904	-0.0219601818361257	
1204000000	0.0481634785269767	-0.0472736038615678	-0.250972752080018	-0.818652815223298	-0.250412684302157	-0.819569954092559	0.0524852748497836	-0.0315697963880736	
1206000000	0.05677967989104	-0.0583794697307132	-0.35358654381306	-0.778607949604369	-0.353196936399668	-0.779580583219966	0.0619825349305803	-0.0429391108608538	
1208000000	0.062464165136089	-0.0712603825794001	-0.449683545378442	-0.72619744039068	-0.449741774611146	-0.727002524107001	0.0684978389433349	-0.0569786829907761	
1210000000	0.0649553514893431	-0.0852530909754778	-0.538223008083587	-0.661556885153042	-0.538370420686426	-0.662188904643837	0.0708549015551899	-0.0721156732458596	
1212000000	0.0641596877273039	-0.0995440350651446	-0.617962146571489	-0.58688643143119	-0.617738658638354	-0.587660276830481	0.0699559587600549	-0.087960773688717	
1214000000	0.0600026850775233	-0.11339505345727	-0.686606066076751	-0.502578529547406	-0.686940089537878	-0.503489537474933	0.0649515909318543	-0.102788466500706	
1216000000	0.0525322971869832	-0.125926349773476	-0.744098975516846	-0.410735986642688	-0.744608351873798	-0.411650333157534	0.0566305672505441	-0.115988933867238	
1218000000	0.0424028641137015	-0.136023946313805	-0.789468367403959	-0.312705269671516	-0.789873030300571	-0.313461826735349	0.0451956404570025	-0.126636860396132	
1220000000	0.030535411310943	-0.144071119713032	-0.822087590618925	-0.210116607483933	-0.822807668599137	-0.210993059419644	0.0313934802326098	-0.134719423167876	
1222000000	0.0169844114152169	-0.14839117025703	-0.84172085824783	-0.104253542420222	-0.842461976984517	-0.104399039145601	0.0161637622931357	-0.139138249184046	
1224000000	0.00237212666696015	-0.150022182994399	-0.848310491404558	0.00312683383976213	-0.848759982279647	0.00292623385653792	-5.47333384132154E-06	-0.140214562580393	
1226000000	-0.0112572365132171	-0.148150824213587	-0.840888189366249	0.110795374758602	-0.841550501545954	0.110642335958221	-0.0158501087520469	-0.13691470872912	
1228000000	-0.0248729418443213	-0.142997659108323	-0.82029165414656	0.217204027078833	-0.821215113856466	0.216375200763153	-0.0304434089796999	-0.129980798430941	
1230000000	-0.0362393134930191	-0.134883634572668	-0.786457170452264	0.319450935730255	-0.787552451221355	0.319066063388712	-0.0428583389539127	-0.119847022613868	
1232000000	-0.0453600061694423	-0.124719653956916	-0.740195815037193	0.416919325557566	-0.740852921657171	0.4168995137477	-0.0528155511495123	-0.10714475131654	
1234000000	-0.0519447327039938	-0.112441955162586	-0.681561229648769	0.508413350415184	-0.682473608838443	0.508495898433161	-0.0596998266429528	-0.092426466574695	
1236000000	-0.0552231096319148	-0.0988735786057671	-0.611921506571765	0.592007272135906	-0.612874827413079	0.592082209649469	-0.0624305882752217	-0.0765829854154627	
1238000000	-0.0548814573113205	-0.0853025477977957	-0.531514303835172	0.665726502778152	-0.532481912638519	0.666127250982235	-0.061505481865013	-0.0601430426612342	
