!Agilent N9923A: A.05.17
!Date: Sunday, 01 January 2006 13:48:55
!Model: N9923A
!Serial: MY50371189
!CHECKSUM:0039326344
!Correction: S11(ON U)S21(OFF)S12(OFF)S22(OFF)
!S2P File: Measurements:S11,S21,S12,S22:
# Hz S RI R 50
1000000000	0.0205750394363348	-0.0129258436027215	-0.514805945402965	-0.716796010786124	-0.514547096746037	-0.71707622874846	-0.0131094892210035	-0.0511720533735717	
1002000000	0.0257412307715468	-0.0210501986320466	-0.603222398715281	-0.643565608834706	-0.602896303953656	-0.644540004589121	-0.0117299783864163	-0.0540544707113637	
1004000000	0.0287006401251513	-0.02974082607732	-0.681386175106814	-0.560083836700809	-0.681146894548252	-0.560764180961443	-0.0115051021316741	-0.0567760707810918	
1006000000	0.0290121711436757	-0.0388336770725835	-0.74809210202549	-0.466853798980787	-0.748044341542461	-0.467554040127239	-0.0129732150384891	-0.0595135516261539	
1008000000	0.0266953000010276	-0.0472787397142037	-0.801971173690172	-0.365941930993908	-0.802226036596471	-0.366848137850438	-0.0147949220535676	-0.0615386465665799	
1010000000	0.0230267338840934	-0.0543884019806089	-0.84249634801298	-0.259237860250059	-0.842807785896211	-0.259568202085003	-0.0172567715799974	-0.0631184383149258	
1012000000	0.0175526421412819	-0.0603106682187343	-0.869050102626563	-0.147715841776143	-0.869051231696787	-0.148244943104379	-0.0204971231780492	-0.0634687075318218	
1014000000	0.0108154475129577	-0.0644838929984664	-0.880547322925217	-0.034132312574086	-0.880756950497396	-0.0345480623929066	-0.0237530680622219	-0.0629014561642611	
1016000000	0.00371894708440149	-0.0659907270759018	-0.877351541006396	0.080339767144111	-0.878159618105651	0.0799466829704307	-0.0267968755191465	-0.0612349737009453	
1018000000	-0.00372616737349964	-0.0657274864486745	-0.859498240529801	0.19298377462015	-0.860240374399641	0.192809411168933	-0.0299428096467337	-0.0584106348638919	
1020000000	-0.0106357180134092	-0.0632172281842565	-0.827449062572774	0.302954609245963	-0.828061156451249	0.302259514665469	-0.0316773169507346	-0.054726257287125	
1022000000	-0.0160827519084752	-0.0586231915898364	-0.781170780618687	0.407476646381392	-0.781746869596913	0.406874379432573	-0.0331319719945963	-0.0506499613297474	
1024000000	-0.0204774270935334	-0.0531140631694657	-0.72183186502673	0.50502824812653	-0.722307525124942	0.504620474655724	-0.0327626008361972	-0.0455348920633651	
1026000000	-0.0226417134354274	-0.0467029570856833	-0.650102911378441	0.594723430801139	-0.650774898341686	0.594119925732645	-0.0313276759878175	-0.0403503620546995	
1028000000	-0.0225996589440868	-0.0393469690907754	-0.567378777779231	0.673682728242192	-0.568428590442925	0.673671777482666	-0.0287852930946196	-0.0355508351410188	
1030000000	-0.0204243976093178	-0.0324134227906263	-0.475236245944152	0.741835067759954	-0.476129836631976	0.741691393735285	-0.0248009442909118	-0.0313628257860345	
1032000000	-0.0162252831390441	-0.0261950363713993	-0.375062279467641	0.797330233436979	-0.375667074699435	0.797068817236621	-0.0195397508632997	-0.0283531944577373	
1034000000	-0.0105026422504588	-0.0215940106177895	-0.268337641798345	0.839198714579836	-0.269131224569211	0.838945149959566	-0.0136887209265957	-0.0256158236431713	
1036000000	-0.00326882034424909	-0.018941153127287	-0.156937403009828	0.866458689493284	-0.157902849282911	0.866959778992104	-0.00654866921129608	-0.0250952348436409	
1038000000	0.00513349815136154	-0.018015643109551	-0.0430617373111794	0.879596219435471	-0.0437777443555845	0.879808315867924	8.57582331081075E-05	-0.02579464522601	
1040000000	0.0130833151412161	-0.0197736670159002	0.0716131724186057	0.877287248357951	0.0707934727522197	0.877705062496796	0.00740197354369203	-0.0277838100913852	
1042000000	0.0215342165541261	-0.0236956070394425	0.184691774728791	0.86047566819858	0.184114700761289	0.860699878902148	0.0137157312343363	-0.031675755810827	
1044000000	0.0278676012568456	-0.0303313764113618	0.294785129691132	0.828810494862558	0.294363697852225	0.829241106742818	0.0195304029500896	-0.0371538857078023	
1046000000	0.0331933736428391	-0.0384008485032598	0.399646488527139	0.782838422735805	0.399491959730561	0.783805999465715	0.0244922320230776	-0.0435879139873338	
1048000000	0.0362533805623181	-0.0480524048948889	0.497524932784759	0.724175950957618	0.497431627576651	0.724837338983658	0.0278777139401993	-0.0513323969618856	
1050000000	0.0364282334227953	-0.0587155081498213	0.587197755587226	0.653156980170622	0.586476753267321	0.653892144641151	0.0293295255385473	-0.0595854723534661	
1052000000	0.0347255461323657	-0.0695843698445999	0.665915365159316	0.571591042264309	0.666116478256981	0.571852808861633	0.0294554476438407	-0.0682633576314416	
1054000000	0.0299570538509811	-0.0798772350019255	0.734150695568287	0.480108877023532	0.734181583923093	0.480578526441493	0.0277081864433555	-0.076803589148101	
1056000000	0.0224919021396349	-0.0892338915587084	0.789698432533611	0.380634109590012	0.789677906729631	0.381342336456895	0.0240312079546196	-0.0845766049239503	
1058000000	0.0130788221403004	-0.0965975594874967	0.831842523013458	0.27524600102866	0.831825457598946	0.276063513693193	0.0185852914773938	-0.0919470821498634	
1060000000	0.00191160310989848	-0.1017662093778	0.860034186583873	0.165510426992995	0.860565600064626	0.16608805590449	0.0120743431537319	-0.0977399595216043	
1062000000	-0.0105113995080392	-0.104049474865572	0.873985677101484	0.0531051607577864	0.874466933747136	0.0536188235588133	0.0047766281776965	-0.101745618065821	
1064000000	-0.0234036118440001	-0.103662966330726	0.873204824754666	-0.0600317253308851	0.873671650045615	-0.0595421247555589	-0.0038466508528759	-0.104234921962819	
1066000000	-0.035810894529977	-0.099835576176215	0.858122712455515	-0.172364715260979	0.858473614635639	-0.171854025899757	-0.0122169543328999	-0.104768028139749	
1068000000	-0.0471685281999768	-0.0935099594822339	0.828682942038974	-0.281730387554883	0.82917955431265	-0.281264599842363	-0.0209408511643976	-0.103536361417997	
1070000000	-0.0567501438932498	-0.0846873169152812	0.785302946991152	-0.386325739121891	0.78585354412032	-0.385920773975149	-0.028656635699636	-0.100813735540106	
1072000000	-0.0640416878595495	-0.0741395792985243	0.728788202193676	-0.484547611168907	0.729674202111057	-0.484140066344844	-0.0354367315700503	-0.0960350147190791	
1074000000	-0.0689402503538584	-0.0620944595514005	0.66031692017764	-0.574818723285299	0.661185216838079	-0.574480969398655	-0.0403527273984753	-0.0904021374910563	
1076000000	-0.070316292583028	-0.0491391520414357	0.580634352864691	-0.655545590970984	0.58129507944587	-0.655313432360244	-0.0445557557567381	-0.0836451906790823	
1078000000	-0.0691430952343034	-0.0360735529023598	0.490825541892093	-0.725542522880307	0.492018404896322	-0.725404070702503	-0.0466110444006446	-0.076312359088936	
1080000000	-0.0647860947091136	-0.0240769413047168	0.392921304298628	-0.783011750401985	0.393655667844449	-0.783021653044463	-0.0465724779299062	-0.0688963558142606	
1082000000	-0.0576447952727428	-0.0141754635944276	0.288189354002727	-0.827636797759551	0.289335698373608	-0.828161188616228	-0.0448488964710441	-0.0618577426546861	
1084000000	-0.0480569587828418	-0.00571002956298772	0.178486967236577	-0.858524093903709	0.179384171646491	-0.858741902048754	-0.0418327958567959	-0.0558667320891246	
1086000000	-0.0373536206569498	-0.000116052990331933	0.0655598301578977	-0.874290536598239	0.0660582305968123	-0.874964973858368	-0.0372336582840227	-0.0508560325287541	
1088000000	-0.0253896355192665	0.00268384872344425	-0.0481462736916601	-0.87559872714213	-0.0481351122868211	-0.87611032905298	-0.031632401207122	-0.0475788691176729	
1090000000	-0.013067172639033	0.00216407124303554	-0.161730703634701	-0.862258839915712	-0.161381457329333	-0.862467051749061	-0.0254680805388363	-0.0455890580581891	
1092000000	-0.00184984220286245	-0.000992454213788328	-0.272405344562529	-0.833220684931263	-0.271978754543796	-0.834227548954933	-0.0189900068040195	-0.0460290979114212	
1094000000	0.00819842711050625	-0.00669803706539586	-0.378600888066223	-0.790902227234163	-0.377867667361025	-0.791508728626941	-0.0132046449254195	-0.0476178685262213	
1096000000	0.016166723235626	-0.0149329818850042	-0.477769963215095	-0.735052298877967	-0.477642545576003	-0.73542493814484	-0.00862359469986992	-0.0512480775437821	
1098000000	0.0222092995977735	-0.0253377568446771	-0.568982336129422	-0.666663040841245	-0.568730931466821	-0.666973787787119	-0.00466065071771425	-0.0558438107576411	
1100000000	0.0250594497068844	-0.0358306895951212	-0.650366772218347	-0.586680660029641	-0.650263102428895	-0.587018687345029	-0.0023924376256543	-0.0610198884453902	
1102000000	0.0253953479454018	-0.0477121278895001	-0.720687121713108	-0.496951936819175	-0.72088763287316	-0.498024762685065	-0.00186049349676673	-0.0677663430681705	
1104000000	0.0226124091269888	-0.0585476172438216	-0.778980796806833	-0.399345152152624	-0.778764796749733	-0.40013483028817	-0.00278342355986619	-0.0735641415526913	
1106000000	0.0174580706819392	-0.0684232935074214	-0.823547050609326	-0.294984292318877	-0.8235102994812	-0.295338149749508	-0.00506278884130922	-0.0789742460834785	
1108000000	0.0103621878533909	-0.0766749448782358	-0.854504405386692	-0.185869938523972	-0.854383599272509	-0.186584018607942	-0.00976096690185928	-0.0839048671018505	
1110000000	0.000788345032432254	-0.0826553798749127	-0.870836510040724	-0.0736472324289272	-0.871211675427545	-0.0744946083270066	-0.0150123470254839	-0.0876342737910548	
1112000000	-0.00949487962415667	-0.0860485573432573	-0.872688818584322	0.0394203027707822	-0.872980239861797	0.0392580561352246	-0.0212770328897127	-0.0899185889618589	
1114000000	-0.0202872527499877	-0.0868014012820165	-0.86021182568498	0.152027244707102	-0.860613729410295	0.151416116691776	-0.0279609221396599	-0.0899779313445811	
1116000000	-0.0310755858203178	-0.0850528435363838	-0.833174978479841	0.261798244506597	-0.833425153158509	0.261427095386761	-0.0350771675704782	-0.0889100689870056	
1118000000	-0.0407291062071662	-0.0808782022431653	-0.792004162092464	0.367060283846522	-0.792665100020172	0.366772954049676	-0.0412718998983183	-0.0858623204684633	
1120000000	-0.0487473091156287	-0.0737013644100466	-0.737940924798028	0.466387329304475	-0.738865010178776	0.466256698066861	-0.0465795445081215	-0.0819014322497185	
1122000000	-0.0552417351715377	-0.0656340917424435	-0.67155592064869	0.558141571339969	-0.672608916879648	0.558016535983643	-0.0507777832118008	-0.0760293320008718	
1124000000	-0.059236888982968	-0.0560218558005393	-0.594072732792992	0.640274967638944	-0.594789056731554	0.640417967370415	-0.0532224376569749	-0.069799285596083	
1126000000	-0.0607181047435513	-0.0457143924512849	-0.505851723016986	0.711907763645327	-0.506993701538173	0.71203190706201	-0.0546231749983255	-0.0635132142022742	
1128000000	-0.059313213381535	-0.035387224476054	-0.409733215536424	0.771770316726273	-0.410675823798463	0.771812457817053	-0.0543322418583727	-0.0565909731626444	
1130000000	-0.0554606002379488	-0.0260610902317304	-0.30611330182091	0.818309859757286	-0.307097975522405	0.818922974069621	-0.0520817211168945	-0.0502592039156632	
1132000000	-0.0495217640996114	-0.0174725365024752	-0.197729252435292	0.851391070120273	-0.198800480141711	0.851764987943335	-0.0483766637399435	-0.0452437244463434	
1134000000	-0.041631352081666	-0.011286465011645	-0.0856303060814035	0.869920154068293	-0.0861743953852515	0.870637629191256	-0.0436734524413217	-0.0408068774646999	
1136000000	-0.0324993604047847	-0.00703705677985666	0.0281764718109868	0.87393373190565	0.0274692748381729	0.874586867774036	-0.0383576612313735	-0.0380651348379144	
1138000000	-0.0225141717623571	-0.00512096498846525	0.141279782858519	0.863016074636683	0.140993195740338	0.863831951359089	-0.0324711789626371	-0.0369550992624818	
1140000000	-0.0126616258872581	-0.00620336704905784	0.252175756197235	0.837107997328976	0.251612668096131	0.838193143757898	-0.0268598056093836	-0.0372215925038818	
1142000000	-0.00318319578349482	-0.00921321100534502	0.358804709241591	0.797719303056971	0.358419246206186	0.797856167639115	-0.0215339118312435	-0.0390893607032801	
1144000000	0.00510381088556144	-0.0149081809163946	0.459281674125612	0.743887256291841	0.458694957265803	0.7448620501493	-0.0171003246503546	-0.0427381051663012	
1146000000	0.0114201426020886	-0.0224164882456495	0.551372839610762	0.678025100847439	0.55147825550906	0.679137268747893	-0.013828958388701	-0.0469439074631954	
1148000000	0.0159290031994669	-0.0312738176921438	0.634601873152349	0.600343536449324	0.634814310154171	0.601133955365535	-0.0116533289378216	-0.0522643333047227	
1150000000	0.0182542364924264	-0.0405865632811448	0.706962153175973	0.512857410901504	0.707271834669166	0.513699719611127	-0.0111035739661931	-0.0571011490297492	
1152000000	0.0176635614470314	-0.0506737412280322	0.766624353025484	0.416741620412073	0.767200075155249	0.41763456157553	-0.0120807776581877	-0.0624414489008849	
1154000000	0.0146474034144978	-0.059589930986301	0.814261071391008	0.313698986819264	0.814351902785259	0.314166799489748	-0.014278514289939	-0.0670792049810353	
1156000000	0.00925728324848097	-0.0678457949517387	0.847515087632294	0.205678861384985	0.84798384597593	0.206199697701595	-0.0171287555857937	-0.0713445476236647	
1158000000	0.00228472773090783	-0.0743910612939755	0.866757593168806	0.0940499668312987	0.8675875896207	0.094618185405439	-0.0219832910709662	-0.074563986026717	
1160000000	-0.00648461192353271	-0.0789435946189953	0.871043413255817	-0.0186892526389385	0.872056223531288	-0.0184519583409626	-0.0264779311384648	-0.0760901771601649	
1162000000	-0.0155488720450342	-0.0810782715167213	0.86133893040556	-0.130907994932908	0.862266528590154	-0.131095584517696	-0.0318519775493312	-0.0768543981237153	
1164000000	-0.0252240613646988	-0.0809244125178995	0.836730112897206	-0.24168983082551	0.837583884084271	-0.241488151577246	-0.0365210078326154	-0.0755881982177543	
1166000000	-0.0344826674337532	-0.0774881554381495	0.798747856328045	-0.347602363840889	0.79923157291215	-0.347218897785007	-0.0412078079289387	-0.0739785240607151	
1168000000	-0.0427800556070423	-0.0722767393526133	0.746693013917712	-0.448042806305347	0.747323967562531	-0.447680484147913	-0.0449451899511557	-0.0707496888867516	
1170000000	-0.0494909022656699	-0.0647343570393747	0.682510173651045	-0.540966785744765	0.683241371095804	-0.540886999364839	-0.0477175025400189	-0.0665552595728943	
1172000000	-0.0537929486275713	-0.0555584772727075	0.60702716462446	-0.624669939874639	0.607521523040353	-0.624752880717344	-0.0495223582383515	-0.0623450413495411	
1174000000	-0.0556154282330047	-0.0456942408258552	0.52074912383622	-0.698035070067136	0.521531918127082	-0.698085985509707	-0.0494459965938608	-0.0578001346422945	
1176000000	-0.0554314374845127	-0.0348524123523678	0.426064880270574	-0.759806200042583	0.426710163696313	-0.760035414904832	-0.0482768895807443	-0.0533628683264445	
1178000000	-0.0521504798958578	-0.0246318358270715	0.323946934359674	-0.808770479995051	0.324673819537124	-0.808918810532284	-0.0458548676596015	-0.0494049623603603	
1180000000	-0.0458535155633278	-0.0155797450063855	0.216369111585907	-0.844045949798262	0.216967507372692	-0.844459832218307	-0.0425347277005775	-0.0463383380363228	
1182000000	-0.0375450965214744	-0.00836486067744702	0.104812636847765	-0.864583541839373	0.105222310790835	-0.865563450776446	-0.0381852251191985	-0.0443753235996857	
1184000000	-0.026881679859687	-0.00311582949273968	-0.00825418192834301	-0.871232485511616	-0.00794259176193821	-0.871719763425909	-0.0335783781614572	-0.0436417454890788	
1186000000	-0.0157113290650162	-0.000443147590483677	-0.121373528807612	-0.862646333557712	-0.121146679397791	-0.863270729309335	-0.0284645584321164	-0.0439951791437929	
1188000000	-0.00367189918162657	-0.000979192254435157	-0.23251402070872	-0.839508815073633	-0.232268317464405	-0.840328903718125	-0.0235780199164534	-0.046219052109375	
1190000000	0.00822687826182786	-0.0044896151027328	-0.339455228727088	-0.801757468609641	-0.339383925042339	-0.80260834084019	-0.0191438741504627	-0.0492129468386656	
1192000000	0.0186046028964943	-0.0108987116183809	-0.440574268593455	-0.750791815584328	-0.440582264712264	-0.751448659667077	-0.0157976589496354	-0.0537931238872536	
1194000000	0.0278300043382684	-0.0198410866507582	-0.534186456370945	-0.686845411447641	-0.534256297867307	-0.687702392921884	-0.0131426940451866	-0.0590922535590352	
1196000000	0.0346275501358368	-0.0309740599575056	-0.618544165413788	-0.611370290707774	-0.618705596642803	-0.612141831230359	-0.0120266047358348	-0.0651882758461804	
1198000000	0.0381343157656164	-0.0434175921929983	-0.692300221450024	-0.525588730207106	-0.692846341669693	-0.52636799327693	-0.0121840152153765	-0.0718691112598016	
1200000000	0.0389070027481184	-0.0570539170421645	-0.754333483478389	-0.431431982626549	-0.754467143279776	-0.431809977146453	-0.0139135994159456	-0.0783756719501163	
1202000000	0.036125201827924	-0.07044286432008	-0.803313562017543	-0.329446265058994	-0.80363972459558	-0.330297697222137	-0.0174475734546557	-0.0844950507647307	
1204000000	0.0300535481891178	-0.0832399044396719	-0.838743680675906	-0.22279806835412	-0.838977867825805	-0.223066396195897	-0.0223720958518437	-0.0899015793091335	
1206000000	0.0213075219067686	-0.0936088238777656	-0.859863323178182	-0.112224896993396	-0.860298403578591	-0.112791366035408	-0.0280974686949684	-0.0942208470535469	
1208000000	0.00973938349269783	-0.102438805287403	-0.866422525287508	-0.000263632888703609	-0.867400652945675	-0.000335478385890559	-0.0347669483819055	-0.0967726132211858	
1210000000	-0.0033741694102475	-0.107806835220005	-0.858765453444108	0.111825966814846	-0.859670411373077	0.111800573778467	-0.0423138682045524	-0.0983198012193904	
1212000000	-0.0178246020556963	-0.11032055802399	-0.8370650698301	0.22189214258773	-0.837561708202959	0.221209907370261	-0.050024889239219	-0.0982376963246983	
1214000000	-0.0325361970951323	-0.108972092135501	-0.801457157707294	0.327742644907789	-0.801750140263615	0.327629511919279	-0.0575560738201641	-0.0962561014069963	
1216000000	-0.0461583049096202	-0.104191301129927	-0.752156463070348	0.428321428201776	-0.752904830526928	0.428419919439474	-0.0646193048023294	-0.0927676063831861	
1218000000	-0.0586673457448689	-0.0960518222348566	-0.690284931843481	0.52138294179985	-0.691072651747054	0.521889873151144	-0.0704570264103338	-0.0875621061135563	
1220000000	-0.0691140938659462	-0.08582256933615	-0.617239225405803	0.606277203017011	-0.61809310787852	0.606613507087856	-0.0750576220966585	-0.081412335263627	
1222000000	-0.0762721731052163	-0.073253337308322	-0.533823629420454	0.681198166511472	-0.534539929634264	0.681599437870543	-0.078700919390316	-0.073916616752798	
1224000000	-0.0804734092757585	-0.0587221831606382	-0.441622607711152	0.74459073830024	-0.442053053529916	0.745195587343262	-0.0801531260133202	-0.0665461346877709	
1226000000	-0.0809322027466233	-0.0443798600329502	-0.341603202764591	0.79552135402955	-0.342157509545735	0.796560341171339	-0.0798955051689866	-0.0582584651113627	
1228000000	-0.0781111801827945	-0.0303044420622746	-0.235927795432122	0.833752534224416	-0.236469502626266	0.834000319524882	-0.0777902144231133	-0.0510437774456232	
1230000000	-0.0718567693892262	-0.0172977806229427	-0.126013475138392	0.857185356617524	-0.126584338642586	0.858117095283551	-0.0737921695299648	-0.0438191420219575	
1232000000	-0.0625019416374161	-0.00664691030368424	-0.0139802478221803	0.867013005510217	-0.0141856197159461	0.867605880784594	-0.0683953181059623	-0.0382099959327257	
1234000000	-0.051405289812883	0.00117454813563482	0.0990690475210046	0.861404673227152	0.098674237359578	0.862484067794782	-0.0617269570186069	-0.0341323115531649	
1236000000	-0.0381989687054838	0.00595878793064736	0.209830465354211	0.841797424906614	0.209957141215647	0.842519539346798	-0.0544961691125724	-0.0316607369340466	
