!Agilent N9923A: A.05.17
!Date: Sunday, 01 January 2006 13:10:50
!Model: N9923A
!Serial: MY50371189
!CHECKSUM:1048897431
!Correction: S11(ON U)
!S1P File: Measurement: S11:
# Hz S RI R 50
200000000	-0.956844324837205	0.232541763641132
201300000	-0.933350082951461	0.311305028468979
202600000	-0.903047266391045	0.387563953767202
203900000	-0.866428997433487	0.461096027984419
205200000	-0.823742146405836	0.530950266133089
206500000	-0.775443975416017	0.597184402242822
207800000	-0.721888988951915	0.658680464183062
209100000	-0.662956700814872	0.715610315852696
210400000	-0.599621205849645	0.767520222316778
211700000	-0.532399279826342	0.81338370034284
213000000	-0.462089140644701	0.853231397612736
214300000	-0.389107009670199	0.886882192647283
215600000	-0.314185152937486	0.914059358468197
216900000	-0.236811149728292	0.935353131643481
218200000	-0.158329481100803	0.950343879647569
219500000	-0.0790760214540493	0.958317457655589
220800000	0.00040352977566274	0.960523671248341
222100000	0.0803388849977494	0.955932542819658
223400000	0.15934306450417	0.944950803873925
224700000	0.237360561348703	0.928009028281841
226000000	0.31380758807904	0.904341041976692
227300000	0.387610756847573	0.874874772529953
228600000	0.458614660372685	0.839725874688584
229900000	0.526297599362175	0.799131563912867
231200000	0.590996687017983	0.753195554237968
232500000	0.651245689929839	0.70242397143235
233800000	0.707514925371954	0.646902380287271
235100000	0.759259988950021	0.587141482178648
236400000	0.80565081997201	0.523681738387858
237700000	0.847188249107475	0.456428464390563
239000000	0.88317033388301	0.386265374641406
240300000	0.913397387879015	0.313137439226067
241600000	0.937722161881438	0.238002355640811
242900000	0.955861017828451	0.161379600462466
244200000	0.967829659988784	0.0832484738828123
245500000	0.97359162612318	0.00411816868997501
246800000	0.972920515325972	-0.0751358428862958
248100000	0.965766332966131	-0.154226282567488
249400000	0.952172793424231	-0.232532403415012
250700000	0.932000297628563	-0.309617132663798
252000000	0.905629483371593	-0.384892119943477
253300000	0.873113507101783	-0.457903014250883
254600000	0.834512053628129	-0.52820538432127
255900000	0.790100640662823	-0.595177153457836
257200000	0.740091456783484	-0.65824305400725
258500000	0.685192568205077	-0.71711338358695
259800000	0.624767915551886	-0.770840272573278
261100000	0.559833620706302	-0.819834096050695
262400000	0.491285968124651	-0.863557190930485
263700000	0.418914101560223	-0.901061946537446
265000000	0.343542636334432	-0.931880877377319
266300000	0.265406965131651	-0.957105188199274
267600000	0.185582015035847	-0.975216205309554
268900000	0.103981867972776	-0.986260131942353
270200000	0.0219123870186414	-0.990574621911663
271500000	-0.0605770013423864	-0.987752505082285
272800000	-0.142853034526531	-0.977779361222172
274100000	-0.223511647968709	-0.961340698192827
275400000	-0.303048335524406	-0.937790198907148
276700000	-0.380147573914201	-0.907507793390311
278000000	-0.454473668647415	-0.870916058568562
279300000	-0.525770011657444	-0.828178629692845
280600000	-0.592920748100043	-0.779000249696215
281900000	-0.655385016982629	-0.725001157375267
283200000	-0.713609529625624	-0.66572514749476
284500000	-0.766560910525949	-0.601423417274289
285800000	-0.813548765694443	-0.533078872625479
287100000	-0.855135892157302	-0.461383344302194
288400000	-0.890018099237458	-0.386114262145144
289700000	-0.918664646413289	-0.308629948258262
291000000	-0.940874529932238	-0.228830429029419
292300000	-0.955960516719606	-0.147412710649214
293600000	-0.964373067243645	-0.065673943881878
294900000	-0.965716342360841	0.0167147757573499
296200000	-0.960409018537815	0.0985836734604709
297500000	-0.948448276608671	0.179811154523985
298800000	-0.929531763416397	0.259530713980764
300100000	-0.904100252647122	0.337026403690585
301400000	-0.872720710816405	0.412233403735263
302700000	-0.835158297611461	0.484249487646227
304000000	-0.791808050454871	0.5526344954802
305300000	-0.743183475703924	0.61738855307877
306600000	-0.689344283358859	0.677706214640901
307900000	-0.630908727362369	0.732480022422063
309200000	-0.568555583279483	0.782928217635605
310500000	-0.501796262787753	0.827900935687982
311800000	-0.432536101857295	0.86660763767321
313100000	-0.35977626640633	0.899522343661587
314400000	-0.284883854033837	0.92624646689634
315700000	-0.208323797195368	0.946765115354523
317000000	-0.130297852500536	0.960596952606619
318300000	-0.0514386436901466	0.968513827159402
319600000	0.0271828359984866	0.969148686127339
320900000	0.105974313961406	0.963234759975197
322200000	0.183413225335282	0.95165771444861
323500000	0.26013657703328	0.933621055397482
324800000	0.334524559897493	0.909087665143479
326100000	0.406726214996652	0.878858859112047
327400000	0.475742117357076	0.842630552538841
328700000	0.54247066545472	0.800778013857228
330000000	0.604872968397503	0.754367985933656
331300000	0.66398853027205	0.702301986877217
332600000	0.717928076137667	0.646271077836743
333900000	0.767687978435245	0.585694488842968
335200000	0.812361632810754	0.521282127779882
336500000	0.851561006202131	0.453594394847334
337800000	0.885274852395606	0.382929261750291
339100000	0.913218599532497	0.309619784769948
340400000	0.93544413055342	0.234085941447542
341700000	0.951570065866525	0.156881860241552
343000000	0.961248654581184	0.0786728919019126
344300000	0.96473675899284	-0.0003071034653819
345600000	0.961857001613667	-0.0794944697574135
346900000	0.952406574157799	-0.15819376924697
348200000	0.936605569375392	-0.236433228856186
349500000	0.914575047387316	-0.313224832944111
350800000	0.886293367630236	-0.387821464082928
352100000	0.851886372068529	-0.460337418306915
353400000	0.811561859039468	-0.529967176967213
354700000	0.76554610942081	-0.596471926578285
356000000	0.713886281702856	-0.658696316628681
357300000	0.657278716583981	-0.717011040179807
358600000	0.595845723254629	-0.770327574920864
359900000	0.530052326474359	-0.818417011472396
361200000	0.459945616490538	-0.861164759901366
362500000	0.38666860451108	-0.897684728551927
363800000	0.310525047369038	-0.928115936803211
365100000	0.231671404329238	-0.952074855866272
366400000	0.150950124460252	-0.96943986969612
367700000	0.0687472611988498	-0.979668593517101
369000000	-0.0141056304102417	-0.982622425319759
370300000	-0.0968676730850606	-0.978790610686517
371600000	-0.179164788800969	-0.967481964864314
372900000	-0.260451846073032	-0.949160210684974
374200000	-0.339842168739176	-0.923598001156395
375500000	-0.4167605393294	-0.891475766348433
376800000	-0.490356838136456	-0.852742347495573
378100000	-0.560420457335981	-0.807632303675635
379400000	-0.626171848151534	-0.756895955378664
380700000	-0.687925927252554	-0.700042578545944
382000000	-0.743765073545161	-0.638700014448658
383300000	-0.794157184779429	-0.572846169318948
384600000	-0.838560671947531	-0.501901435581774
385900000	-0.876858056062646	-0.428866200954576
387200000	-0.908679756417081	-0.35228943395873
388500000	-0.933766187622996	-0.27359098508081
389800000	-0.951811100899831	-0.193221903006783
391100000	-0.962826860187569	-0.112005594324078
392400000	-0.967106689199775	-0.0298222665226675
393700000	-0.964603579258295	0.051717949103831
395000000	-0.955224339287647	0.132859033141567
396300000	-0.938778111165723	0.212689950285531
397600000	-0.916269957694533	0.290626885694469
398900000	-0.887069397117957	0.366066251381585
400200000	-0.852189657136893	0.438738029664599
401500000	-0.811161401318428	0.507863521095682
402800000	-0.765090879347388	0.573587735156549
404100000	-0.713642669146465	0.634841536014753
405400000	-0.657601843381504	0.691916760993394
406700000	-0.597313383094468	0.743433368691661
408000000	-0.533226494697624	0.790222664862645
409300000	-0.465357726963455	0.831793277037316
410600000	-0.395349055516347	0.867210262896335
411900000	-0.322153703339048	0.896878697741798
413200000	-0.247271064672767	0.920449300904655
414500000	-0.1707594823901	0.937994362380821
415800000	-0.0930241691226478	0.949703219216344
417100000	-0.0152617930077895	0.954280313928231
418400000	0.0628687687262429	0.953118821851932
419700000	0.140469557267799	0.945753184827116
421000000	0.217154580595688	0.932117769674219
422300000	0.292364765819496	0.91179591600201
423600000	0.365729851461035	0.885956814284049
424900000	0.436676219111252	0.854343899935469
426200000	0.50507123335629	0.817184478681833
427500000	0.56981100613126	0.774265769392636
428800000	0.630986240394743	0.72608012023627
430100000	0.688500549346879	0.673519843865679
431400000	0.741027674091543	0.616211681021201
432700000	0.788939919933234	0.554935210865351
434000000	0.831475289285459	0.489710488472554
435300000	0.868635629377951	0.42128730437084
436600000	0.90007389267306	0.349934455015257
437900000	0.925306522545804	0.276101761701011
439200000	0.944966634393991	0.200269294664858
440500000	0.958319848033608	0.12315038713144
441800000	0.965192072465027	0.0452274393372865
443100000	0.965674215842843	-0.0330797858121738
444400000	0.959744900195922	-0.111434904042488
445700000	0.9471985533361	-0.189123673350573
447000000	0.928544043264081	-0.265523761217927
448300000	0.903709830703169	-0.340490935210022
449600000	0.872455697352482	-0.412914637270954
450900000	0.835943754845344	-0.48297864965743
452200000	0.793393879674085	-0.54973155409092
453500000	0.74533388230474	-0.612972841654254
454800000	0.692543539730008	-0.672418014178099
456100000	0.634478843701446	-0.727140275724837
457400000	0.572443571150513	-0.776929871128807
458700000	0.506208131523739	-0.8220438846402
460000000	0.436446801847963	-0.861077410834728
461300000	0.363065799596651	-0.894472607653332
462600000	0.287303189920853	-0.921906850388769
463900000	0.209364760587341	-0.943184485537852
465200000	0.12977077111936	-0.957712071909293
466500000	0.0494613957745205	-0.965286872809739
467800000	-0.0319628486045844	-0.966587005729819
469100000	-0.113179444068892	-0.960880282570028
470400000	-0.193886841050025	-0.948524041335856
471700000	-0.273357721790339	-0.929119520215344
473000000	-0.351211435497094	-0.903142717961907
474300000	-0.426718377954276	-0.87044850588755
475600000	-0.498925790585774	-0.831769670922153
476900000	-0.56821944466815	-0.786486528686015
478200000	-0.632842071139106	-0.735901000026643
479500000	-0.693283735990947	-0.679336992862216
480800000	-0.748859202236	-0.617952218355644
482100000	-0.798832177869816	-0.551858769579467
483400000	-0.842970393919457	-0.482166101846345
484700000	-0.880865999934739	-0.408201313104311
486000000	-0.912113559689917	-0.331172001015361
487300000	-0.936264379381693	-0.251967086882073
488600000	-0.953890272487762	-0.171155267203737
489900000	-0.964206311651042	-0.0888372589856354
491200000	-0.967542218216946	-0.00623796915738798
492500000	-0.963297581366672	0.0763346436098733
493800000	-0.951839719703031	0.157946211716919
495100000	-0.933569438442174	0.238356855197686
496400000	-0.908391155585687	0.316471560012372
497700000	-0.876654889024479	0.392136568728682
499000000	-0.839090718513673	0.464453075322422
500300000	-0.794763878543564	0.533287695819447
501600000	-0.745658053214729	0.597638286428189
502900000	-0.690892851237688	0.65726610612069
504200000	-0.631741750262544	0.71272354762083
505500000	-0.568595092036291	0.762126391378002
506800000	-0.501388121593987	0.806091421618101
508100000	-0.431529472265596	0.844550943688128
509400000	-0.358973103800397	0.8764517187353
510700000	-0.283868042481956	0.902762906853193
512000000	-0.207582714130397	0.922423465012237
513300000	-0.129999859816022	0.935908315781424
514600000	-0.0521110318382657	0.943122853175437
515900000	0.0256045371126681	0.944370147658592
517200000	0.103558316079043	0.938869004733332
518500000	0.180387567233267	0.927373919297617
519800000	0.2553896669166	0.910233135921322
521100000	0.329607469065509	0.88681275375716
522400000	0.400631946676487	0.857894232055239
523700000	0.469258632321676	0.823111497199289
525000000	0.534454538910829	0.783656086212687
526300000	0.597342069838485	0.739238910565424
527600000	0.655274808539126	0.689733560984874
528900000	0.709546463791074	0.635933490958267
530200000	0.759277473646872	0.578079112562795
531500000	0.804542345045904	0.516510898262151
532800000	0.845238721570362	0.451467001170672
534100000	0.879486050687113	0.383536109833173
535400000	0.909019218834622	0.312966059598877
536700000	0.932745073066641	0.239858088450185
538000000	0.95044406459815	0.165172066080449
539300000	0.962403348619602	0.0891581573940581
540600000	0.968098413179685	0.0122761510555183
541900000	0.967351908919121	-0.0648800672683173
543200000	0.960494251190804	-0.141975666213291
544500000	0.947020703310696	-0.218710845639215
545800000	0.927341920514676	-0.294027908575297
547100000	0.901875616822751	-0.367925109001957
548400000	0.869913215953179	-0.439638734485479
549700000	0.831917225315081	-0.50841867272628
551000000	0.787956398140843	-0.574369605634467
552300000	0.738748235209864	-0.636329927948597
553600000	0.684402718220552	-0.694412673956865
554900000	0.624945768468219	-0.747764737543848
556200000	0.561125469523722	-0.796311336736096
557500000	0.492914558333791	-0.839500510519086
558800000	0.421036795508114	-0.876697569256405
560100000	0.346568797307936	-0.90755025290851
561400000	0.269185922436502	-0.932775645102148
562700000	0.18944702769458	-0.950887782445978
564000000	0.108603056983239	-0.962151546870894
565300000	0.0270003949388961	-0.967595327155922
566600000	-0.0551832288610892	-0.964827605276439
567900000	-0.137226601070652	-0.955434401628395
569200000	-0.218159471226901	-0.939036334987845
570500000	-0.297181699906885	-0.915373171764362
571800000	-0.374374853257655	-0.886350527424638
573100000	-0.448673343965523	-0.850096416446335
574400000	-0.519838715612533	-0.807452255908112
575700000	-0.58698194158639	-0.759179839241987
577000000	-0.649822058212725	-0.705285267603165
578300000	-0.707559719698053	-0.646432797377761
579600000	-0.759793741242122	-0.582791422366916
580900000	-0.807230676378514	-0.514741342641853
582200000	-0.848327380828052	-0.443430410922235
583500000	-0.883160556892532	-0.368697930249767
584800000	-0.911266845927854	-0.292360690115793
586100000	-0.933094343829319	-0.212723503737406
587400000	-0.947945520005681	-0.132567819258302
588700000	-0.955916412708736	-0.0511835274186368
590000000	-0.956913930663138	0.0299754250506822
591300000	-0.951443363566239	0.110576971105498
592600000	-0.938774162869334	0.190629242200067
593900000	-0.919849869962355	0.269171238942689
595200000	-0.894040570072775	0.345388473203754
596500000	-0.862351822680261	0.419035220148521
597800000	-0.824782386813628	0.489561117671802
599100000	-0.781669317595498	0.556405367473694
600400000	-0.732590289418414	0.619219479884548
601700000	-0.6793228693675	0.677785487888249
603000000	-0.621054141950112	0.73134079999103
604300000	-0.559153890700288	0.780134155493018
605600000	-0.492489650241131	0.823068502696001
606900000	-0.423483107722172	0.859977765135997
608200000	-0.351566677358406	0.891697820620681
609500000	-0.277405823436139	0.917239461141815
610800000	-0.201861168236067	0.936026187823906
612100000	-0.12499439228101	0.949041476825441
613400000	-0.0464990841429215	0.955015884403019
614700000	0.0314820946455458	0.954972878696449
616000000	0.10880648831543	0.94853000048538
617300000	0.186150304847289	0.936153488666958
618600000	0.261344409608112	0.917312798075741
619900000	0.33534097861711	0.892168068677303
621200000	0.407283303231619	0.861319475220037
622500000	0.476372311792856	0.824820481504556
623800000	0.541768911006465	0.783443693641443
625100000	0.603916846313959	0.735806913444179
626400000	0.66193404360883	0.684079784970438
627700000	0.716028818412575	0.627261891427357
629000000	0.765359657200504	0.566910405822804
630300000	0.80917540146751	0.502157715493956
631600000	0.848098985544543	0.43440041995726
632900000	0.881651536920975	0.362888619913566
634200000	0.909349637217865	0.289974433938356
635500000	0.930852185919701	0.214709041783778
636800000	0.946374061431827	0.138016688845661
638100000	0.955344186743742	0.0598761559101378
639400000	0.958174887148419	-0.0189877226285368
640700000	0.954895611777784	-0.0973145619583273
642000000	0.944620227281134	-0.175882724864657
643300000	0.928371427005803	-0.252658087306014
644600000	0.906219901584496	-0.328228307813667
645900000	0.877551043157059	-0.401935472632059
647200000	0.842669618125462	-0.47290641013237
648500000	0.802478880064059	-0.541143540512977
649800000	0.756834112840835	-0.605563525617302
651100000	0.705884718519884	-0.66578126462707
652400000	0.650214213751813	-0.722316487144133
653700000	0.589763339527559	-0.774058389132803
655000000	0.525187095337768	-0.819949693182138
656300000	0.45734869150795	-0.861004268948468
657600000	0.386102120218862	-0.896038115938056
658900000	0.311930295761807	-0.924665120649609
660200000	0.235334061052082	-0.947252083369141
661500000	0.157210992308618	-0.963637249625631
662800000	0.078437795015162	-0.973105071742274
664100000	-0.00139899631268744	-0.976075158155537
665400000	-0.0810013096911519	-0.972067611546239
666700000	-0.160081894984122	-0.960960897294753
668000000	-0.238577232518347	-0.943330445717796
669300000	-0.314967635045367	-0.919695841781195
670600000	-0.389326147791727	-0.889285073706701
671900000	-0.460889332398086	-0.852809455635191
673200000	-0.529461757732464	-0.810079268901376
674500000	-0.594162385233725	-0.762048205342786
675800000	-0.654283380805437	-0.708343783256865
677100000	-0.709821545594154	-0.650038758938777
678400000	-0.760827833039682	-0.586162892711429
679700000	-0.805885038363091	-0.51891784177296
681000000	-0.845304697855453	-0.447919668027009
682300000	-0.878856005539715	-0.373820287608668
683600000	-0.906393214159698	-0.296888251064544
684900000	-0.926782218239771	-0.21781323098951
686200000	-0.940469719036471	-0.136958231461176
687500000	-0.947448111954991	-0.0557139575466453
688800000	-0.94779098157404	0.0261078025193912
690100000	-0.940585517634397	0.107781393537608
691400000	-0.927320931564308	0.188588160728082
692700000	-0.906886416280891	0.267766024266116
694000000	-0.880343577223021	0.345037950890563
695300000	-0.846917555830852	0.419600925913945
696600000	-0.80738591793072	0.49159282085649
697900000	-0.761835592947241	0.559094296970302
699200000	-0.711209539356695	0.622995457384395
700500000	-0.655305638774645	0.682775998132108
701800000	-0.594526280883082	0.736323553853036
703100000	-0.529766198682994	0.785114553221091
704400000	-0.461483777558291	0.828097936540438
705700000	-0.389743414351211	0.865430369784919
707000000	-0.315285993284409	0.896338213615171
708300000	-0.238819912368374	0.920808746788719
709600000	-0.161401335167618	0.938300780490235
710900000	-0.0820189408982852	0.950342195185587
712200000	-0.00279984199762718	0.954898633535727
713500000	0.076118573095877	0.952579575564223
714800000	0.1548383725028	0.943969227691575
716100000	0.232097204256077	0.929300329935964
717400000	0.307416718833506	0.908677290833979
718700000	0.380456012116885	0.880737125052592
720000000	0.450750990930012	0.84797491443644
721300000	0.518126279205364	0.809374204876372
722600000	0.581349473835815	0.765517373432978
723900000	0.640851370299603	0.716381799789837
725200000	0.695896295128638	0.663370023296491
726500000	0.746511291225803	0.605946899992935
727800000	0.792067872054829	0.544616015515862
729100000	0.832974765398066	0.480255149525669
730400000	0.867756045567991	0.412981974093356
731700000	0.897319579479341	0.342848850715278
733000000	0.921343146329785	0.270296647371814
734300000	0.939248000314752	0.196795585565046
735600000	0.951063747720238	0.121977583378858
736900000	0.957450137749887	0.0471423281941353
738200000	0.957892471622073	-0.0291230975831563
739500000	0.951912142579151	-0.104621984480273
740800000	0.940294173848223	-0.179541661163867
742100000	0.922575171855583	-0.253706823186527
743400000	0.899056152960603	-0.326028759446818
744700000	0.870260239872572	-0.396984794533553
746000000	0.835387520225881	-0.46553293159318
747300000	0.79522785325187	-0.530701086793768
