!Agilent N9923A: A.05.17
!Date: Sunday, 01 January 2006 13:17:47
!Model: N9923A
!Serial: MY50371189
!CHECKSUM:0934028858
!Correction: S11(ON U)
!S1P File: Measurement: S11:
# Hz S RI R 50
200000000	-0.662784219401599	0.595593011079585
201300000	-0.545215437095228	0.702425601362762
202600000	-0.411939821200765	0.786072562097156
203900000	-0.267505791415521	0.844379487731964
205200000	-0.117405180228887	0.876542904194324
206500000	0.0344506081535433	0.882742118925545
207800000	0.182785603058283	0.863734568772364
209100000	0.324547427139023	0.820661211201949
210400000	0.455676516486723	0.756242211592304
211700000	0.572763596989401	0.672437563514654
213000000	0.673625006618441	0.572804488565613
214300000	0.757034706999195	0.459732286249291
215600000	0.820920156994758	0.336310271128158
216900000	0.865396080324224	0.205323265796523
218200000	0.888781876011905	0.0696549838674829
219500000	0.891541494113733	-0.0674231486329513
220800000	0.873342877552929	-0.203056291770301
222100000	0.834409470698384	-0.335474882302012
223400000	0.775437967332447	-0.46078454529061
224700000	0.696967425622711	-0.575848141444448
226000000	0.601008044410883	-0.678651015687733
227300000	0.489516741390099	-0.765068073955919
228600000	0.363995102232999	-0.83352939428217
229900000	0.227668433764895	-0.881674401930756
231200000	0.0836604504699269	-0.907048465793062
232500000	-0.0645151629627968	-0.907968178254135
233800000	-0.21247559647969	-0.883794418850697
235100000	-0.356142760582145	-0.833937623153683
236400000	-0.49087427925972	-0.758954619707666
237700000	-0.611382477649584	-0.660354342767091
239000000	-0.71398156662496	-0.541081380501975
240300000	-0.794306244012212	-0.404067022803105
241600000	-0.849006564647499	-0.253922516603155
242900000	-0.87592307652895	-0.0960569774969248
244200000	-0.873906578517875	0.0645927828038398
245500000	-0.84290431992947	0.222065976771289
246800000	-0.784422091839804	0.370864040521822
248100000	-0.700830711536023	0.506172934680542
249400000	-0.595322208707176	0.623605293489396
250700000	-0.47206126170437	0.719886104632919
252000000	-0.335610346574428	0.792396394068505
253300000	-0.190440270294728	0.839823727865061
254600000	-0.0411938601504825	0.861613952850302
255900000	0.107477079914363	0.858009931889934
257200000	0.251570041944753	0.830398367884073
258500000	0.387123749958939	0.780315891674708
259800000	0.511694735557989	0.709955243326234
261100000	0.621899008193279	0.622182354883609
262400000	0.71561187585356	0.518255648757873
263700000	0.791251861245548	0.402584611190272
265000000	0.847871487659111	0.277377131707034
266300000	0.883942680302151	0.145705608789564
267600000	0.899020131843126	0.0105611831992423
268900000	0.893080109404973	-0.125274877192695
270200000	0.866019607640465	-0.258584424035868
271500000	0.81854801765049	-0.386375885517043
272800000	0.751231710035996	-0.505733222899135
274100000	0.665604084216149	-0.613953480595603
275400000	0.563170002045525	-0.707732870356526
276700000	0.44584076157532	-0.784997244301998
278000000	0.315881997312633	-0.8428877490341
279300000	0.176752741793787	-0.879456103072116
280600000	0.0314207379549997	-0.892706730299474
281900000	-0.115515846820201	-0.881455481447684
283200000	-0.260572768159934	-0.845016270870508
284500000	-0.399160026610326	-0.783561690339223
285800000	-0.526672417255146	-0.698014248119899
287100000	-0.638960476523019	-0.590897172161938
288400000	-0.730834320572159	-0.463662655009686
289700000	-0.799413951455527	-0.321873753315467
291000000	-0.841907107452241	-0.168534330433366
292300000	-0.855895174376924	-0.00936389565668455
293600000	-0.841283906457482	0.14935399365203
294900000	-0.797987044270038	0.30299882631736
296200000	-0.728238190775344	0.445514023939909
297500000	-0.634475491174396	0.572866371359871
298800000	-0.520610061362867	0.680300930793987
300100000	-0.390377421608782	0.764851251050691
301400000	-0.249068095841964	0.824560120789095
302700000	-0.101312297730937	0.858363385091766
304000000	0.047388047181549	0.866291983657935
305300000	0.193847918471729	0.84868707849582
306600000	0.333209378272991	0.807433991787522
307900000	0.461433689362882	0.74444884457266
309200000	0.576845811086097	0.662603996580233
310500000	0.676078971261483	0.564167363872001
311800000	0.757326554768661	0.45274908212963
313100000	0.819216620217791	0.330951149577362
314400000	0.861098013715603	0.201982793732189
315700000	0.882401486137697	0.0687290419692101
317000000	0.882718148754471	-0.0652785416375154
318300000	0.862581547013017	-0.197655952840369
319600000	0.823119667109859	-0.325066994177888
320900000	0.763866443035963	-0.445372140588471
322200000	0.687157092335337	-0.555489780627126
323500000	0.593513966432649	-0.653121939857835
324800000	0.485901453660066	-0.735699657041977
326100000	0.364983877590441	-0.801060580719224
327400000	0.234144416292281	-0.847376501407299
328700000	0.0965073393757804	-0.872207005641118
330000000	-0.0457066029987459	-0.874730383654765
331300000	-0.187535323266494	-0.854262235957417
332600000	-0.32637674687558	-0.809755048180876
333900000	-0.456988311648223	-0.741893255593976
335200000	-0.575631554472404	-0.651769137359637
336500000	-0.678569685751602	-0.541638650791125
337800000	-0.761292060584736	-0.413843462904892
339100000	-0.820703750990489	-0.272476098129045
340400000	-0.85436866025731	-0.121716500496689
341700000	-0.860704639263406	0.033410869172834
343000000	-0.838646924573717	0.187415597118154
344300000	-0.789678325686582	0.335167982461264
345600000	-0.714806284013967	0.471146619911417
346900000	-0.617016219684092	0.591254066050429
348200000	-0.499997079794515	0.690887860656279
349500000	-0.36881352184441	0.768131075309687
350800000	-0.226996200967831	0.820047619925802
352100000	-0.0800550778781679	0.846720104839328
353400000	0.0674912559404659	0.847949611538652
354700000	0.210958050310778	0.824601501396219
356000000	0.347142150918982	0.777727889248704
357300000	0.471878799833011	0.709999714003787
358600000	0.582817241079565	0.624293272310256
359900000	0.677248092314128	0.522938840178539
361200000	0.753828905825164	0.409205125740649
362500000	0.811103068594432	0.285503594268821
363800000	0.848025710555844	0.15561379504899
365100000	0.864335724038663	0.0223613923776773
366400000	0.859874644117609	-0.111578348458735
367700000	0.834889856769615	-0.242775313661888
369000000	0.789800486808492	-0.368663620622881
370300000	0.725760226733112	-0.486091911793546
371600000	0.644072570165175	-0.592786330826572
372900000	0.54608865256409	-0.685851306309535
374200000	0.433718045800404	-0.762870154828525
375500000	0.30952003347878	-0.821632788720962
376800000	0.176105181478601	-0.859746767440318
378100000	0.0367159977537673	-0.875676972235836
379400000	-0.104936339738182	-0.868729892724871
380700000	-0.246302548416392	-0.837423118289093
382000000	-0.380932313905839	-0.782100794875972
383300000	-0.505851275820976	-0.703337331602555
384600000	-0.616750858923459	-0.601995176750278
385900000	-0.709128085793319	-0.482513798424036
387200000	-0.779405853524024	-0.346974919893385
388500000	-0.824489789631357	-0.199365345519716
389800000	-0.842576007839707	-0.0456104039262796
391100000	-0.83220041209909	0.109671263563386
392400000	-0.793955337416437	0.260944090462408
393700000	-0.729253734792017	0.402704571483734
395000000	-0.640097072591469	0.529905188546098
396300000	-0.529855849903236	0.638261759173511
397600000	-0.402927584198188	0.724543561313578
398900000	-0.264141841226645	0.786553081736418
400200000	-0.118376040574425	0.822894334239702
401500000	0.0298858757436578	0.832703142166954
402800000	0.175860227649082	0.817737189588942
404100000	0.315283925452942	0.778584626368488
405400000	0.444087703363286	0.717768514608693
406700000	0.559495181830185	0.637313215418507
408000000	0.65886121591038	0.540646246707127
409300000	0.740789145112291	0.430353282638304
410600000	0.802825429938834	0.310483020080792
411900000	0.844845024053316	0.183019041052262
413200000	0.866249437700999	0.0517442391878744
414500000	0.866696572436788	-0.0804664231145471
415800000	0.847033754501339	-0.2105422438128
417100000	0.807474724751117	-0.33556389539865
418400000	0.749227944447333	-0.452868024935442
419700000	0.673421278792941	-0.560017556254841
421000000	0.58151896102395	-0.65424800315483
422300000	0.475956139460028	-0.733341968077094
423600000	0.358037436135182	-0.795868253054805
424900000	0.231281335802774	-0.839608709062295
426200000	0.0973678392761742	-0.86235810302828
427500000	-0.0396806602228986	-0.863827964387297
428800000	-0.176721110405632	-0.843272691693748
430100000	-0.309885556837232	-0.799536265849595
431400000	-0.435889667783189	-0.733861871575482
432700000	-0.550662946122909	-0.646948875646078
434000000	-0.650382395126026	-0.54077464715875
435300000	-0.731122389111777	-0.417198348323749
436600000	-0.789835280333554	-0.280229308648882
437900000	-0.824340467133327	-0.133873745366047
439200000	-0.831847669988725	0.017031092397509
440500000	-0.812737658403987	0.168185366688489
441800000	-0.766668158458419	0.313686062595554
443100000	-0.695347236592677	0.448863199165144
444400000	-0.60086754570046	0.568551088028234
445700000	-0.487028109425656	0.669069231731912
447000000	-0.357808153194585	0.747233476691191
448300000	-0.218087340338513	0.800378762456195
449600000	-0.0719513917261453	0.82827651729258
450900000	0.0745681316388484	0.82957893711244
452200000	0.217314803236835	0.806384693515865
453500000	0.352481853272204	0.759735534758062
454800000	0.475656505442353	0.691252945708888
456100000	0.584813681289671	0.605072763676816
457400000	0.677066327287367	0.503230742680634
458700000	0.750588533690391	0.389629425914829
460000000	0.804692483957984	0.266684412595465
461300000	0.838347905572323	0.138374545952229
462600000	0.851306710145707	0.0075615804344871
463900000	0.844135127834914	-0.122905217646545
465200000	0.817226768945536	-0.250031898003677
466500000	0.77118768397198	-0.370965212728086
467800000	0.707632098210452	-0.483545620503993
469100000	0.627460472961527	-0.585130854173581
470400000	0.53235679659022	-0.673645005771537
471700000	0.424460177646855	-0.746760888975685
473000000	0.305615858600257	-0.803001974806836
474300000	0.178874459259775	-0.840132508149435
475600000	0.0466408996348459	-0.857279561681349
476900000	-0.0886023570169712	-0.85306851556277
478200000	-0.222181051170346	-0.827250337855547
479500000	-0.351734542062742	-0.778991292463215
480800000	-0.473479732483906	-0.709561398004472
482100000	-0.582888584811195	-0.619523525077775
483400000	-0.676434077636781	-0.511183130343517
484700000	-0.751197984555176	-0.386348905308457
486000000	-0.803499120579037	-0.249430868227925
487300000	-0.831033173547518	-0.104306102500245
488600000	-0.832273096258788	0.0448049882152195
489900000	-0.80719118385678	0.192157527496191
491200000	-0.755541431508694	0.333543092847262
492500000	-0.679434762796485	0.463107990848189
493800000	-0.581417171485678	0.576440768734479
495100000	-0.465364392979566	0.670803054555136
496400000	-0.335238570068494	0.742105058252281
497700000	-0.195416798681825	0.789196809953474
499000000	-0.0509861723017442	0.811307375054538
500300000	0.0933271768276398	0.807798448527278
501600000	0.233518101674155	0.780295748280587
502900000	0.365317647799572	0.730358690353782
504200000	0.48578511499746	0.659810442043788
505500000	0.591116778471069	0.571736005359562
506800000	0.680312009627493	0.468600891857676
508100000	0.750792825277403	0.354158036405564
509400000	0.801757511406017	0.230971222460783
510700000	0.832178364865975	0.102504375967783
512000000	0.842443974979019	-0.028218512670983
513300000	0.831870292069266	-0.158092925171851
514600000	0.801489333560222	-0.284547141751443
515900000	0.752077126546644	-0.404556458145164
517200000	0.68466403762199	-0.515493731809837
518500000	0.60041123627348	-0.614554794752862
519800000	0.501073783816881	-0.69973644061551
521100000	0.38949874877214	-0.76843646861996
522400000	0.266883482059187	-0.819034824022383
523700000	0.137015131519024	-0.849826680704301
525000000	0.00206967088166429	-0.858621958035593
526300000	-0.133151794104618	-0.845180539738448
527600000	-0.266814908760129	-0.809383849096747
528900000	-0.393736036961105	-0.750800544860973
530200000	-0.510224502931816	-0.670867705853672
531500000	-0.612374371423588	-0.570597648928486
532800000	-0.696617329300056	-0.453255230029801
534100000	-0.760163012882709	-0.321277532297427
535400000	-0.799548240120775	-0.179487777231313
536700000	-0.813551388335536	-0.0314417493233934
538000000	-0.800632251207634	0.117266954208223
539300000	-0.760940979924114	0.262074943917327
540600000	-0.696554727178069	0.397320232426445
541900000	-0.608737969075069	0.518614264134293
543200000	-0.501094696869384	0.622491887834937
544500000	-0.376910845703793	0.704373069118285
545800000	-0.24143633756915	0.763135076373843
547100000	-0.098786733036333	0.79676668616386
548400000	0.0459405118337022	0.804827538382453
549700000	0.188870141611686	0.787677723963785
551000000	0.324538257493569	0.747101261162408
552300000	0.450532530156707	0.684282190242986
553600000	0.56252339459488	0.602834608655171
554900000	0.658069108328024	0.504472696309228
556200000	0.735460403589779	0.392734934144384
557500000	0.792936905753807	0.271478985059925
558800000	0.829448174140627	0.143214362548397
560100000	0.845143720854358	0.0122646345579675
561400000	0.839454673600381	-0.118713937623585
562700000	0.813394591389332	-0.246587293088052
564000000	0.766908161325778	-0.368336198992587
565300000	0.702712397654536	-0.481107191386127
566600000	0.621267701188301	-0.581982563562582
567900000	0.524280008370459	-0.669132721709349
569200000	0.41503044329948	-0.740909594049257
570500000	0.295339024883513	-0.793317898345293
571800000	0.168245273562306	-0.828030700574749
573100000	0.0363919425712798	-0.841158968770723
574400000	-0.0971492450890828	-0.83308051780301
575700000	-0.229045420653861	-0.803440845171968
577000000	-0.355045351418975	-0.752951374329484
578300000	-0.471997444128644	-0.681285685834502
579600000	-0.576099031446652	-0.590357528485958
580900000	-0.665532694544716	-0.48235932341032
582200000	-0.735425693777369	-0.360173561488448
583500000	-0.783882094798523	-0.22653591978351
584800000	-0.80887572937727	-0.0863079021662747
586100000	-0.80955024370551	0.057572007220733
587400000	-0.784957145569222	0.199556943748567
588700000	-0.736031561213838	0.335564131379865
590000000	-0.664203014209509	0.460992461846154
591300000	-0.571518721544844	0.571815492505081
592600000	-0.461105424738775	0.664388478670431
593900000	-0.336221192678268	0.735973688229707
595200000	-0.202283113099007	0.784248663233273
596500000	-0.0623641331667007	0.808715186153676
597800000	0.078071841081195	0.808968964412576
599100000	0.21536032876628	0.784998302866692
600400000	0.345187698472887	0.738352888227124
601700000	0.464982729082758	0.671856234874842
603000000	0.570727474769647	0.586841457187031
604300000	0.660754349630873	0.4871266141918
605600000	0.731850355122559	0.374362863515856
606900000	0.784043196035732	0.252974938435295
608200000	0.816217107246374	0.12612247745021
609500000	0.827299473343673	-0.00335816751833136
610800000	0.818627980323634	-0.132753869004353
612100000	0.789666247798496	-0.258309143936799
613400000	0.741662958231148	-0.377999291395151
614700000	0.676123035356289	-0.488283381489449
616000000	0.593889571679181	-0.587430924277617
617300000	0.497281332726812	-0.672249676473515
618600000	0.388379494223484	-0.741337433946304
619900000	0.269408920595572	-0.793157478464474
621200000	0.142993735135717	-0.825284412917837
622500000	0.0120872481529674	-0.837163734358033
623800000	-0.120245928991884	-0.828112921728653
625100000	-0.249944890420198	-0.797132746428104
626400000	-0.375037110068019	-0.745012585276014
627700000	-0.490003571335938	-0.672806047629468
629000000	-0.592468105079818	-0.580547154590403
630300000	-0.678983451056421	-0.471624113412315
631600000	-0.746063693274388	-0.348317293529186
632900000	-0.790712347693063	-0.213978914872842
634200000	-0.811691619169021	-0.0734395151585222
635500000	-0.807592533632929	0.070052111299093
636800000	-0.778959519992849	0.211424160027608
638100000	-0.724234744883988	0.345546121565019
639400000	-0.646748926508508	0.468031145309054
640700000	-0.548923517720639	0.575254688713595
642000000	-0.434446361499024	0.663181866400246
643300000	-0.30619405921107	0.729037549170791
644600000	-0.169347887174185	0.771271114873029
645900000	-0.0280745163451135	0.789766376535161
647200000	0.113292556012082	0.782844820498436
648500000	0.249782997930788	0.752592801842438
649800000	0.378323495191725	0.699709877295099
651100000	0.494519128400953	0.627575370465838
652400000	0.596195207953901	0.537542875211069
653700000	0.680880933636571	0.433310681036032
655000000	0.74715644906095	0.317982873993417
656300000	0.793142512130551	0.194338660221883
657600000	0.818597882518131	0.066075959540993
658900000	0.823613544576296	-0.0633716189115645
660200000	0.807893229766816	-0.191552639509685
661500000	0.772280253674172	-0.314846226233644
662800000	0.717860739061949	-0.430709274160258
664100000	0.646111711143384	-0.536673767529851
665400000	0.558426020036475	-0.63008219829622
666700000	0.457025145158958	-0.708264266792297
668000000	0.343080480650674	-0.769752040495146
669300000	0.22099165612247	-0.812307484963195
670600000	0.0923194897643076	-0.834896869685582
671900000	-0.039332844933856	-0.83632833075144
673200000	-0.171249410484317	-0.815876437346002
674500000	-0.298866980972354	-0.773357950412986
675800000	-0.418639820282444	-0.70965000673558
677100000	-0.527510813897377	-0.625724992076525
678400000	-0.621935352313773	-0.522525531389514
679700000	-0.697130613144728	-0.403961743598651
681000000	-0.751756078147315	-0.272711713615886
682300000	-0.782777968119241	-0.132963428402132
683600000	-0.788908156975445	0.011281828649639
684900000	-0.768932322439879	0.155502268023751
686200000	-0.723692930951529	0.293861058724533
687500000	-0.654547976079383	0.42238810552088
688800000	-0.563409201727266	0.536131465967439
690100000	-0.453991429588891	0.631561692652348
691400000	-0.330266539096194	0.705712637101415
692700000	-0.19648027807049	0.756458863650291
694000000	-0.0571854262380084	0.783189754370235
695300000	0.0831864221595344	0.78436914856922
696600000	0.219690860285025	0.762678900085702
697900000	0.34887801723482	0.718592270996733
699200000	0.467556123564342	0.65449232194947
700500000	0.572461269622233	0.572730023346397
701800000	0.660634349768667	0.476377571759829
703100000	0.731886551737157	0.368526153456247
704400000	0.783656581055967	0.252062002382477
705700000	0.817074070198186	0.129593935959073
707000000	0.830004836196425	0.00563396910732136
708300000	0.824234785096265	-0.118439080192508
709600000	0.799203179703455	-0.23896718188891
710900000	0.755666418801648	-0.354622680512192
712200000	0.695659953821352	-0.461639188847118
713500000	0.619825266428413	-0.55842439270109
714800000	0.530009354964185	-0.642987637844742
716100000	0.427076389637131	-0.71315658107868
717400000	0.31449079710415	-0.766782581204413
718700000	0.193134106439857	-0.802932642168611
720000000	0.0664352028262543	-0.819632223888995
721300000	-0.0629322103186998	-0.816014795813484
722600000	-0.191812411608968	-0.791789037394689
723900000	-0.317215974997778	-0.746218136404788
725200000	-0.434784679797351	-0.678655105467475
726500000	-0.540659464602493	-0.591269123212943
727800000	-0.631959740339538	-0.485531004011482
729100000	-0.704034755455813	-0.363475409593009
730400000	-0.754591366836025	-0.228824292133544
731700000	-0.780179343928544	-0.0862723942814207
733000000	-0.779359001995987	0.0602689032507358
734300000	-0.752006636741494	0.205085501613477
735600000	-0.697808840817488	0.343323344750287
736900000	-0.619157376968361	0.468813121136891
738200000	-0.519040041709752	0.577349606308512
739500000	-0.400645965782971	0.665267651252807
740800000	-0.269217875358856	0.729225017809025
742100000	-0.129429151564819	0.768192138264535
743400000	0.0127434038366306	0.780595041533096
744700000	0.153309774095563	0.767569263559565
746000000	0.287604875309559	0.730536259129113
747300000	0.4112463834035	0.672464151257147
