!Agilent N9923A: A.05.17
!Date: Sunday, 01 January 2006 13:15:08
!Model: N9923A
!Serial: MY50371189
!CHECKSUM:1578715050
!Correction: S11(ON U)
!S1P File: Measurement: S11:
# Hz S RI R 50
200000000	-0.813811766184446	0.376854427614911
201300000	-0.732168088573698	0.515170926189996
202600000	-0.628184474470528	0.635327055316617
203900000	-0.505864254064173	0.734335601016291
205200000	-0.370440612586486	0.809198705164105
206500000	-0.226165284781823	0.859410576090453
207800000	-0.0781920079134616	0.884150120667465
209100000	0.0701118889753702	0.883862717321394
210400000	0.213899279292151	0.859826099396014
211700000	0.349444506434897	0.813888433643504
213000000	0.47380845122823	0.748420045299673
214300000	0.585021249210602	0.665514755225779
215600000	0.680655190112628	0.568215107029215
216900000	0.760140930824919	0.45844541386864
218200000	0.822169987619739	0.339090796118378
219500000	0.865039296234182	0.213072590906791
220800000	0.889165818545594	0.0826804026447277
222100000	0.89353182148604	-0.0506712253392456
223400000	0.878311761914133	-0.183367598915262
224700000	0.843342748271693	-0.312613892320687
226000000	0.789294639030477	-0.436211600355625
227300000	0.716808461493426	-0.550470058704179
228600000	0.626898102889639	-0.65372573439278
229900000	0.52111202501436	-0.743081935730095
231200000	0.401121324139365	-0.815744435120589
232500000	0.269158693929417	-0.869137859259264
233800000	0.128566196438092	-0.900856118511459
235100000	-0.0180025586820611	-0.909312498802582
236400000	-0.166393846491671	-0.892973059059439
237700000	-0.311900006888007	-0.850899422539411
239000000	-0.450357579734526	-0.783527017041921
240300000	-0.576520161305172	-0.691734313618953
241600000	-0.685634914756271	-0.577687693155829
242900000	-0.773539048700045	-0.444874066978132
244200000	-0.836310666337083	-0.297189636607865
245500000	-0.872082260734208	-0.139663590807403
246800000	-0.878284474903046	0.021733866295551
248100000	-0.855344797536426	0.181276080823518
249400000	-0.804073901823491	0.333717040200957
250700000	-0.727143735779336	0.473424978916096
252000000	-0.627688716668973	0.596395794858197
253300000	-0.509358126878681	0.698674474113387
254600000	-0.376618172463451	0.777745719372931
255900000	-0.234334171963006	0.832223865355693
257200000	-0.0873322258126063	0.861160401523182
258500000	0.0598267371950961	0.865261606251873
259800000	0.203788581261543	0.845662655476932
261100000	0.340258861457343	0.804361194065435
262400000	0.466656418348549	0.74167912729448
263700000	0.580055000984652	0.661565324875645
265000000	0.678520031799425	0.565989175115307
266300000	0.760373989086122	0.457459681568317
267600000	0.823730343970466	0.338742849523036
268900000	0.868573540875539	0.212459712243901
270200000	0.893082165307378	0.0814795595796243
271500000	0.897799004004805	-0.0517212738293186
272800000	0.882009889085311	-0.183923695718484
274100000	0.846259284280634	-0.312815763886646
275400000	0.790705067786259	-0.435279272663042
276700000	0.716245084885472	-0.548495927774412
278000000	0.62458176146339	-0.650000592612791
279300000	0.51702451935185	-0.736731492267806
280600000	0.39490211096778	-0.806193133339815
281900000	0.262331512603281	-0.855859978528727
283200000	0.120863589020257	-0.883760952600923
284500000	-0.0251967311486663	-0.888003841542968
285800000	-0.171961177169126	-0.8673285373031
287100000	-0.315494883532717	-0.822222934476783
288400000	-0.450704960726224	-0.751383596919661
289700000	-0.573081107669737	-0.657875863567799
291000000	-0.678548793895945	-0.543055273152653
292300000	-0.762663996557085	-0.409720790664837
293600000	-0.822011361044759	-0.263373893345119
294900000	-0.854305841549125	-0.107862308070614
296200000	-0.858313580823067	0.0510922774252054
297500000	-0.833718317676721	0.20768895896809
298800000	-0.781768674019427	0.356991418613522
300100000	-0.7045056710081	0.493555466293406
301400000	-0.605210174941484	0.6130047920233
302700000	-0.487805311733698	0.712421690278287
304000000	-0.357023086365392	0.788648402469575
305300000	-0.216589976309234	0.840706711025485
306600000	-0.0715160945530273	0.867471163042815
307900000	0.0729222529208025	0.869254345867604
309200000	0.214576368492848	0.848050792796204
310500000	0.348828215481513	0.8044165729998
311800000	0.471707956107401	0.740945440634562
313100000	0.581903597947471	0.659360247532718
314400000	0.676916619532271	0.563149952189008
315700000	0.755313837672348	0.454231227616156
317000000	0.815090649669115	0.335482823934488
318300000	0.856195077837527	0.209897532042394
319600000	0.877802706856823	0.080332442640727
320900000	0.879306325436733	-0.0511575774717199
322200000	0.861528703907042	-0.181041333223857
323500000	0.824212953041659	-0.307361326067688
324800000	0.768375471159325	-0.426875438164067
326100000	0.694296981591388	-0.537345359043068
327400000	0.603761151232065	-0.636350069688039
328700000	0.497869400959476	-0.720578666742151
330000000	0.378370633817771	-0.78884887347847
331300000	0.249010783970575	-0.837900162152286
332600000	0.110746154272352	-0.865839773001035
333900000	-0.0318223071755939	-0.871256991547631
335200000	-0.175367433619437	-0.853070983232753
336500000	-0.316247911320275	-0.810691229454934
337800000	-0.449158724525421	-0.744303084040593
339100000	-0.570304519827002	-0.654819752679296
340400000	-0.67526256320508	-0.544627142923485
341700000	-0.759930954996418	-0.416598879362786
343000000	-0.820952312188656	-0.274234804926484
344300000	-0.855671218507799	-0.122892389576502
345600000	-0.862748778100355	0.0325503663805752
346900000	-0.841558722050185	0.186888849970641
348200000	-0.793030571562166	0.334376687053136
349500000	-0.719543390438142	0.469980413830994
350800000	-0.623562186502839	0.589400373333765
352100000	-0.509200767917433	0.689095214737505
353400000	-0.380804325305206	0.766503922988529
354700000	-0.242877787695788	0.820033512811487
356000000	-0.0992645261557442	0.848545312221643
357300000	0.0444856605790293	0.852639588185502
358600000	0.18499660529209	0.833563994383687
359900000	0.318508255315153	0.792498043961051
361200000	0.441996450446629	0.73155604414151
362500000	0.553024672038098	0.65275671679262
363800000	0.648973222104015	0.558661870261281
365100000	0.729132842526388	0.45243779177502
366400000	0.791116486475963	0.335572542829359
367700000	0.834525039912015	0.211970510719581
369000000	0.858883009080087	0.0835792127304807
370300000	0.863041473390959	-0.0464269947502269
371600000	0.848116584809832	-0.175602117041955
372900000	0.813973656527848	-0.301328194685282
374200000	0.761133214009698	-0.420685222994636
375500000	0.690185645438777	-0.531308383871355
376800000	0.602593336647921	-0.63042815043587
378100000	0.499721055593099	-0.715596475670141
379400000	0.383951705660037	-0.784409503434637
380700000	0.256429535759181	-0.834809200903858
382000000	0.121514344244755	-0.86430935716618
383300000	-0.0183318475870456	-0.871345502349019
384600000	-0.160001803611614	-0.854829245708291
385900000	-0.298121867822456	-0.814976432380535
387200000	-0.429469905725051	-0.750923180988854
388500000	-0.549301008887829	-0.664190410771413
389800000	-0.653392939272735	-0.556998975226949
391100000	-0.737773615258637	-0.431887570290639
392400000	-0.799671374093338	-0.292812468696459
393700000	-0.835834174424903	-0.144201437178234
395000000	-0.844998690129673	0.00883934431330731
396300000	-0.826425913532612	0.161329671562495
397600000	-0.781169109127737	0.307846970886222
398900000	-0.711117946003692	0.443104957711237
400200000	-0.618746528553179	0.563396411357344
401500000	-0.507745356494982	0.664369726847425
402800000	-0.382163145024345	0.744407197493857
404100000	-0.24633971881833	0.800433937784122
405400000	-0.104771689025401	0.832486481143378
406700000	0.0378481625126104	0.839761627950775
408000000	0.177928539972467	0.823953865632184
409300000	0.31195485063452	0.786153786962437
410600000	0.435664034587124	0.728482166676925
411900000	0.547493139522719	0.652230390253332
413200000	0.644712548107982	0.560602016738346
414500000	0.725490693055683	0.456027349496686
415800000	0.788957526786577	0.341207557223715
417100000	0.833270960162162	0.219044362191436
418400000	0.858470445359531	0.0921782826727738
419700000	0.864057852660426	-0.0366178606860923
421000000	0.84963649233891	-0.164544119939535
422300000	0.816024421771284	-0.288854499746079
423600000	0.76381068619593	-0.407352429142768
424900000	0.693883615041712	-0.516945498557163
426200000	0.606655228918083	-0.614971865793333
427500000	0.50456668305129	-0.699091058005555
428800000	0.389653105037955	-0.767309735592331
430100000	0.264041897954158	-0.816468662241901
431400000	0.129834171869388	-0.845912957031101
432700000	-0.0085350676943875	-0.853133535662395
434000000	-0.148734700578167	-0.837434994854559
435300000	-0.286529387137482	-0.797843038828788
436600000	-0.416892233029969	-0.734431199931088
437900000	-0.536840257780978	-0.648839981504848
439200000	-0.64001957407034	-0.542240848157996
440500000	-0.725465005400538	-0.418150170269961
441800000	-0.78684551300263	-0.279581261631034
443100000	-0.823387972347153	-0.130941016534485
444400000	-0.832321036757835	0.022013389516855
445700000	-0.813846427691574	0.174046687180162
447000000	-0.76805003885849	0.320227632686837
448300000	-0.697003858765795	0.454883877821877
449600000	-0.603706753104931	0.574427761923666
450900000	-0.491342505842248	0.6736963276902
452200000	-0.365179282038266	0.751072667762505
453500000	-0.228955107329809	0.804380131345303
454800000	-0.0876581935230321	0.832470647832085
456100000	0.0536918916464478	0.836891582059746
457400000	0.191938911148625	0.817155895634899
458700000	0.322616772770609	0.776225153076171
460000000	0.443669823219175	0.715239078640898
461300000	0.551077058842716	0.637077277275595
462600000	0.643793848399383	0.543963593764915
463900000	0.720167837198793	0.439288041970908
465200000	0.779157052342048	0.325519641506061
466500000	0.819608366335187	0.204741767416608
467800000	0.841576922621162	0.0804603517389739
469100000	0.844466304226194	-0.0452560240331566
470400000	0.829005906809071	-0.170047461716385
471700000	0.795006801186823	-0.290804894421052
473000000	0.743218437445092	-0.405679868225576
474300000	0.674649279967176	-0.511996950255616
475600000	0.590718632095493	-0.607485116941749
476900000	0.491454985221149	-0.690359338512701
478200000	0.380243805028891	-0.757113202326455
479500000	0.258192530118007	-0.806779550288102
480800000	0.127632534572649	-0.837147113440988
482100000	-0.00770147947329096	-0.84667383301222
483400000	-0.144419426739491	-0.833621598090879
484700000	-0.28014933321263	-0.797267294221591
486000000	-0.409509756790029	-0.738029300635811
487300000	-0.528461219573403	-0.656483569163645
488600000	-0.632776299431622	-0.553942145462247
489900000	-0.718393822058182	-0.433233493855771
491200000	-0.782059082722806	-0.297945906466186
492500000	-0.82049289360131	-0.152467822470752
493800000	-0.83165109283036	-0.00179727001827762
495100000	-0.815435379241244	0.149046961191623
496400000	-0.772215141415518	0.293952710597668
497700000	-0.703564957742736	0.427974132135763
499000000	-0.612700170045688	0.546944976154617
500300000	-0.503193651776576	0.646812869959111
501600000	-0.379215159922662	0.72492661923351
502900000	-0.245871163418417	0.779611979322322
504200000	-0.106231699690243	0.810063135275777
505500000	0.0336081686959127	0.816682633657617
506800000	0.17077037737996	0.800207595099921
508100000	0.301553252597481	0.762295246979782
509400000	0.42227606126529	0.704484653481763
510700000	0.530844725438937	0.629712156804041
512000000	0.625251133859092	0.53946951319281
513300000	0.703833054337837	0.437233621683696
514600000	0.765223398513776	0.32522287879281
515900000	0.808167155000955	0.206294088171516
517200000	0.832986948918997	0.0820531537600008
518500000	0.838557400754923	-0.0438353839155987
519800000	0.824951487449843	-0.169116147680736
521100000	0.792445946279954	-0.291059282982353
522400000	0.741381961087057	-0.407207873590986
523700000	0.672926878172259	-0.515239207524067
525000000	0.587333422679835	-0.611696437481642
526300000	0.486770119318302	-0.694790866852866
527600000	0.372585624672323	-0.76146473454499
528900000	0.247599968829405	-0.809696321297734
530200000	0.113955674177738	-0.837204192960726
531500000	-0.0237151967463684	-0.841845840913431
532800000	-0.16308700160877	-0.822653155251189
534100000	-0.299040945769452	-0.779768013990282
535400000	-0.426909302932026	-0.712960811488409
536700000	-0.542757794746053	-0.623671028469581
538000000	-0.641835340229544	-0.513848660525315
539300000	-0.720192090915307	-0.386949875104532
540600000	-0.775534260134807	-0.247531344329792
541900000	-0.804511838082945	-0.0998418727332918
543200000	-0.806197800487953	0.0507883807118522
544500000	-0.781264250472356	0.198515154089837
545800000	-0.73038566026012	0.338623151427666
547100000	-0.656213117782382	0.466105848733913
548400000	-0.561767647016726	0.577617729973248
549700000	-0.450889269205477	0.669673525783292
551000000	-0.328057524981728	0.740717226961166
552300000	-0.196602282978608	0.78895009882051
553600000	-0.0617355843560256	0.814335965786327
554900000	0.0731760986922595	0.817328751709855
556200000	0.20443654420332	0.798372389163816
557500000	0.328817089183015	0.760443380113238
558800000	0.444098311679313	0.703869765602529
560100000	0.547884029092404	0.631986956061276
561400000	0.638071841099638	0.545570937108509
562700000	0.713164013312861	0.448714777545884
564000000	0.773101977862833	0.341913935410252
565300000	0.815809581012541	0.228828235802973
566600000	0.841249747532938	0.111233692962813
567900000	0.849690867389235	-0.00894835859591567
569200000	0.839598531648113	-0.128740834796362
570500000	0.812550407149578	-0.245591273390841
571800000	0.768372028524377	-0.358478841676513
573100000	0.707577188158564	-0.46383487924254
574400000	0.631230559258929	-0.560355865670586
575700000	0.540438014310204	-0.64514418144702
577000000	0.436239440112575	-0.716381216879857
578300000	0.320916020155047	-0.771200032509063
579600000	0.196310979183183	-0.807675741586103
580900000	0.064886255971966	-0.825339884635317
582200000	-0.0697269212391525	-0.821103085561745
583500000	-0.204393436290386	-0.793825160884469
584800000	-0.334526445928749	-0.744738351500905
586100000	-0.457436356511434	-0.671583033660849
587400000	-0.56672000631363	-0.578107697998675
588700000	-0.659208889919199	-0.46419533165717
590000000	-0.731159891422218	-0.334237473216813
591300000	-0.778874122458066	-0.192350630885268
592600000	-0.799826549038243	-0.0428219900932193
593900000	-0.793139230439327	0.108407518033995
595200000	-0.758513151953148	0.2560060199568
596500000	-0.697552589682053	0.394316996595024
597800000	-0.612588083430684	0.518506380025975
599100000	-0.507316434241222	0.624072297954407
600400000	-0.385954144567028	0.707319791189773
601700000	-0.253534604781696	0.767186970604354
603000000	-0.114781258490573	0.80175393911015
604300000	0.0258705929548411	0.812090517865399
605600000	0.163492196294209	0.797453744125284
606900000	0.294129056146173	0.7609786201679
608200000	0.415349585920638	0.704530314860508
609500000	0.523258963952385	0.630651104042761
610800000	0.616994600650827	0.542326137625377
612100000	0.694356284352535	0.441828706092509
613400000	0.754663699526064	0.331598885678139
614700000	0.796900189132769	0.215150949857179
616000000	0.821208490172307	0.0951581806226051
617300000	0.827382378392115	-0.0268777432412319
618600000	0.815770082237846	-0.147146696552024
619900000	0.786120968708046	-0.264634375825913
621200000	0.739855357074669	-0.376421318443339
622500000	0.677450493739517	-0.480303364224488
623800000	0.60023152397634	-0.574309166293501
625100000	0.509015333036624	-0.656685337316035
626400000	0.404969471817771	-0.725103094102128
627700000	0.29147525563462	-0.777508374227785
629000000	0.169269022265747	-0.812049347229817
630300000	0.0408308307249372	-0.827197251927549
631600000	-0.0903926434303509	-0.82218198219564
632900000	-0.221203804322373	-0.794482627803692
634200000	-0.347751526170912	-0.745248563997844
635500000	-0.466320428182919	-0.674033237691538
636800000	-0.573007364085954	-0.582198429246705
638100000	-0.663416831771663	-0.471008987218844
639400000	-0.732784394582161	-0.343771870154575
640700000	-0.779600523895999	-0.204641823539949
642000000	-0.800090391506106	-0.0581576177615421
643300000	-0.793148217767128	0.0907574437933059
644600000	-0.758297818941468	0.236813676907589
645900000	-0.698242982401259	0.373630832169991
647200000	-0.613997490061323	0.497075807027612
648500000	-0.509225461025697	0.601862285009802
649800000	-0.38792218528664	0.685490129314402
651100000	-0.255857055133424	0.745861178483487
652400000	-0.116906946102858	0.780978593374267
653700000	0.0236383423637762	0.791370344786233
655000000	0.161757219343862	0.777672782059821
656300000	0.293031992897742	0.741790208634429
657600000	0.414476731104368	0.685952418989648
658900000	0.523322374900022	0.612922655731702
660200000	0.61719706809969	0.524630714481973
661500000	0.694988923403997	0.424734362038603
662800000	0.755279650563334	0.315986786311598
664100000	0.797946536618435	0.20069810114618
665400000	0.82281436235751	0.0820697879084352
666700000	0.829609789808873	-0.0380993836525829
668000000	0.818581290224208	-0.157035827487111
669300000	0.790601796443046	-0.27239866317852
670600000	0.746230747189362	-0.38203353894523
671900000	0.68563123440014	-0.484017103071482
673200000	0.610819202861763	-0.576622909594304
674500000	0.522619534565447	-0.657539788174801
675800000	0.422811836676546	-0.724366554660145
677100000	0.312644056153993	-0.776472099834933
678400000	0.193778273391263	-0.811533112327401
679700000	0.0695972496303793	-0.827396138576708
681000000	-0.0573804079877142	-0.824373601376832
682300000	-0.184734708927474	-0.800547581962776
683600000	-0.309243121070913	-0.755443745494399
684900000	-0.426734714241711	-0.688945397480183
686200000	-0.533400496157391	-0.602301180852622
687500000	-0.624751252562247	-0.496566573218387
688800000	-0.698012601937892	-0.374796932889279
690100000	-0.749071519867481	-0.239590644993252
691400000	-0.776133993509636	-0.0962011222310996
692700000	-0.77622543544023	0.0516238764699518
694000000	-0.749622337342734	0.197938917987816
695300000	-0.69618890215588	0.337254612120611
696600000	-0.618089720309452	0.464165631424838
697900000	-0.518210473945783	0.574184531677643
699200000	-0.400955838375617	0.663523463891651
700500000	-0.27066045714315	0.729613604953858
701800000	-0.13264113117806	0.770352780583702
703100000	0.0083197459423918	0.786054119665059
704400000	0.147487135746568	0.776846918239537
705700000	0.280830204101196	0.744753711097477
707000000	0.404358813285714	0.691365935877836
708300000	0.51496736379086	0.619699045916476
709600000	0.610076036513917	0.532798388863692
710900000	0.689524132181139	0.433315228957758
712200000	0.750278788023765	0.324469234064067
713500000	0.793212392772961	0.2092501992396
714800000	0.817502190081901	0.0897428888846987
716100000	0.823189143959651	-0.0300912051548352
717400000	0.810987903169729	-0.148738890564763
718700000	0.781574147814082	-0.263361113083386
720000000	0.735567725584292	-0.37252818942798
721300000	0.673798364254732	-0.473673796337261
722600000	0.598371924916548	-0.564593467143726
723900000	0.50904569263344	-0.644008499338088
725200000	0.408076798491384	-0.709171507082469
726500000	0.29746761252048	-0.759366221457232
727800000	0.179105154840804	-0.793127205062256
729100000	0.0551564596222204	-0.807650290451842
730400000	-0.0721134021047195	-0.803321620946126
731700000	-0.198447633355716	-0.777973487937507
733000000	-0.321601315348231	-0.732051221521367
734300000	-0.43765946760136	-0.665504597388019
735600000	-0.542253547474304	-0.577647027850804
736900000	-0.632491283352286	-0.472328471107002
738200000	-0.703475945377939	-0.350793885980662
739500000	-0.753077676684186	-0.216761452898213
740800000	-0.777816196917308	-0.0746311307818028
742100000	-0.776549942175718	0.0707611279905313
743400000	-0.748413359458919	0.214419906127023
744700000	-0.694353546646951	0.351003202643755
746000000	-0.616068336338093	0.474517272464726
747300000	-0.517175390344833	0.581599934728461
