!Agilent N9923A: A.05.17
!Date: Sunday, 01 January 2006 13:18:17
!Model: N9923A
!Serial: MY50371189
!CHECKSUM:1992181639
!Correction: S11(ON U)
!S1P File: Measurement: S11:
# Hz S RI R 50
200000000	0.719506686369601	-0.551268692905384
201300000	0.625787262079807	-0.657107553951952
202600000	0.515557944634733	-0.747796932673443
203900000	0.39156458871652	-0.820450848627954
205200000	0.255828620686635	-0.873921058427672
206500000	0.111133082048308	-0.904404397133519
207800000	-0.0383068677247315	-0.910601344694583
209100000	-0.18922123105861	-0.891499816590816
210400000	-0.336294869376652	-0.847045565555051
211700000	-0.475302729624063	-0.776957234824251
213000000	-0.601598203791979	-0.682500982496762
214300000	-0.709386376642566	-0.566771503054409
215600000	-0.796276077062995	-0.431765470868333
216900000	-0.857755985753345	-0.282441681858089
218200000	-0.89093985791075	-0.123584806892915
219500000	-0.895032432262762	0.0391484088457437
220800000	-0.869389021602795	0.199894311791418
222100000	-0.814765920714528	0.353520137177905
223400000	-0.733580544374631	0.494158779351779
224700000	-0.629164983140416	0.61743543644246
226000000	-0.505586979760673	0.718846964734136
227300000	-0.367717963332528	0.795834934003755
228600000	-0.220601941231545	0.846815805133468
229900000	-0.0694502033104872	0.871489057196476
231200000	0.0821627278477837	0.870926761952445
232500000	0.229114576719114	0.844657438513352
233800000	0.368142432644271	0.795662424725628
235100000	0.495336609595629	0.725938506926778
236400000	0.608370969584367	0.637713357583528
237700000	0.704908122158762	0.533953518149615
239000000	0.783247850344672	0.417537744589906
240300000	0.842333416054004	0.291338700534004
241600000	0.880881112361043	0.158544348552962
242900000	0.898260744624127	0.0221359653455187
244200000	0.894826167540145	-0.115311435747634
245500000	0.870320713289667	-0.250599325762591
246800000	0.825060598033313	-0.380794829452361
248100000	0.759991854009721	-0.502900824174842
249400000	0.676088797667213	-0.614085653044091
250700000	0.57481541704611	-0.71142255870355
252000000	0.457944387345423	-0.791847797096039
253300000	0.328231160942117	-0.853228630435623
254600000	0.188445533566854	-0.893247929426674
255900000	0.0423997466793578	-0.909655700194451
257200000	-0.106838545168557	-0.901435113714967
258500000	-0.25421577240164	-0.867800339997757
259800000	-0.395375871646942	-0.808117992045727
261100000	-0.525722070228038	-0.723740563271661
262400000	-0.640875402130035	-0.617255434653393
263700000	-0.735932818976578	-0.490429803236661
265000000	-0.807398729825519	-0.34780468652747
266300000	-0.852483001409125	-0.193765311924013
267600000	-0.869096060317131	-0.0337877398251475
268900000	-0.856803008023143	0.127037522559044
270200000	-0.815736893363864	0.282561614255958
271500000	-0.748026193512453	0.427395829900676
272800000	-0.6559461452322	0.55703094166714
274100000	-0.543308285201513	0.667462922542074
275400000	-0.414450888555112	0.755367681802206
276700000	-0.273926401869681	0.819137939378025
278000000	-0.126632924388474	0.857272538353754
279300000	0.0231356196408358	0.869541074943439
280600000	0.17042574025722	0.856851247791297
281900000	0.311753376869242	0.820145771875953
283200000	0.44336244902614	0.762241377401091
284500000	0.562225822001828	0.684390866811006
285800000	0.665767372299272	0.589813118002911
287100000	0.75209959078895	0.481108582631387
288400000	0.82021078532291	0.361375897882003
289700000	0.867800144661339	0.233147211303196
291000000	0.894949680309468	0.0998658665961751
292300000	0.901095631333456	-0.035266307781075
293600000	0.886254697094793	-0.169774841414155
294900000	0.850748000404758	-0.300498601115538
296200000	0.795873337608577	-0.424495017764766
297500000	0.721821303808369	-0.539084888660622
298800000	0.629999554740361	-0.641840451642031
300100000	0.522983936832027	-0.729329020386345
301400000	0.402338687664397	-0.799664439362224
302700000	0.270206879080708	-0.850719573589171
304000000	0.129899522976792	-0.879840426820658
305300000	-0.0149117120577801	-0.886141241356746
306600000	-0.160864871280773	-0.86842846799419
307900000	-0.303701892644758	-0.826053390570423
309200000	-0.438988777392276	-0.75861508401809
310500000	-0.562063461062714	-0.668607762348507
311800000	-0.669485923495935	-0.556867177563378
313100000	-0.756444210513321	-0.427053113371057
314400000	-0.819204875975015	-0.282133654301396
315700000	-0.855465016547005	-0.127701074078664
317000000	-0.863103368730071	0.0315250031450403
318300000	-0.842013740960791	0.189707420839572
319600000	-0.792330426230889	0.341564444005565
320900000	-0.716044954209328	0.481355047401965
322200000	-0.616272658908578	0.604209600076467
323500000	-0.496699566021794	0.706509761647553
324800000	-0.361875218172021	0.784783843865744
326100000	-0.217001099954705	0.837334005895853
327400000	-0.0670698415880852	0.86291926875108
328700000	0.0836660888998067	0.862429531916036
330000000	0.22915550839288	0.836428471059137
331300000	0.367278117310169	0.786468569632165
332600000	0.492765293016217	0.715652298711653
333900000	0.604000655745768	0.626246666073931
335200000	0.697912547553644	0.521081068865794
336500000	0.772493031244871	0.403365564335516
337800000	0.827672150071183	0.276845012875665
339100000	0.861830468902265	0.144094999123097
340400000	0.874736632045565	0.00841317580278595
341700000	0.866749064922359	-0.127131735588302
343000000	0.837708054918344	-0.259253330772078
344300000	0.788480999369128	-0.385724437047762
345600000	0.720840669295139	-0.502925275076891
346900000	0.635143723243539	-0.608695946895128
348200000	0.53350494672921	-0.70088000251751
349500000	0.417707297066245	-0.775887465324878
350800000	0.290763585628306	-0.832595519223445
352100000	0.154749001408459	-0.868454195501363
353400000	0.0134941118086776	-0.882161101626983
354700000	-0.130157766799213	-0.872075443069975
356000000	-0.271502411849904	-0.838048738294417
357300000	-0.406806215488571	-0.780090620550327
358600000	-0.531719925641759	-0.699007859650613
359900000	-0.641903986315352	-0.596174075802572
361200000	-0.733271996214834	-0.474475785363929
362500000	-0.802167724845722	-0.33745483664908
363800000	-0.846053263468451	-0.189313876959002
365100000	-0.862606039060097	-0.0348140622554959
366400000	-0.851302616216889	0.120616572337877
367700000	-0.812253657378828	0.271655740701981
369000000	-0.746485733489026	0.413013649381696
370300000	-0.657022791440643	0.53987317846472
371600000	-0.547131915908577	0.647894139296996
372900000	-0.420834589859309	0.7343917335554
374200000	-0.282613424363548	0.796472602725055
375500000	-0.137743717918571	0.833835451950828
376800000	0.0101770128101841	0.845672462995948
378100000	0.155632065664432	0.832572569018291
379400000	0.295307496782776	0.795636835535075
380700000	0.424372273113542	0.737238716621502
382000000	0.541963361670594	0.6594556058767
383300000	0.643732732972153	0.565327638609743
384600000	0.728539605434908	0.457921303404121
385900000	0.794369869588979	0.339113912353636
387200000	0.840754890945405	0.212907499973538
388500000	0.867005344052918	0.0822259257739485
389800000	0.873000802170137	-0.0500527315397729
391100000	0.858613446721391	-0.181312228485248
392400000	0.824148726480831	-0.308617627919311
393700000	0.770871441897565	-0.429143161022068
395000000	0.699509501938754	-0.539965517860323
396300000	0.611656381534587	-0.639338770073493
397600000	0.508932422656328	-0.72398299812316
398900000	0.393012783328223	-0.791962326467351
400200000	0.266864968370243	-0.842275554651535
401500000	0.132930821622202	-0.871528930652164
402800000	-0.00585877197030548	-0.878738342173785
404100000	-0.14551609089607	-0.863015394032476
405400000	-0.282694831529879	-0.824272584710923
406700000	-0.413278364022417	-0.762421721499939
408000000	-0.533031543648059	-0.677939946624254
409300000	-0.638057077002942	-0.572791134315445
410600000	-0.724117940494647	-0.449497627638674
411900000	-0.787928571371163	-0.311745293358682
413200000	-0.827036164465543	-0.16326933735679
414500000	-0.838791386423123	-0.00912470299610846
415800000	-0.822699815535708	0.145305499317116
417100000	-0.778914452472993	0.294823349220033
418400000	-0.708842607236147	0.433902619776925
419700000	-0.614967139373958	0.557963100949283
421000000	-0.500834337098337	0.662601681289435
422300000	-0.370464336925032	0.744188967109976
423600000	-0.228977491172517	0.801279431149604
424900000	-0.0813681535787947	0.831982058420666
426200000	0.0675364636084587	0.836779474834203
427500000	0.213055293332512	0.815244593102179
428800000	0.350922985454791	0.769882516233993
430100000	0.477655053523174	0.703300419461336
431400000	0.589516240193464	0.617511553016174
432700000	0.684629755367299	0.515653325786708
434000000	0.760808181635404	0.401379159877577
435300000	0.816852373364428	0.277434220232384
436600000	0.852311541735752	0.147989983440907
437900000	0.866806149265756	0.015196035397373
439200000	0.860617165243894	-0.117141754127883
440500000	0.83378190509934	-0.246562445284153
441800000	0.787451790031664	-0.369425436813954
443100000	0.722741451955998	-0.484049268890543
444400000	0.641237653431372	-0.587613571804805
445700000	0.543853310523035	-0.677474787932218
447000000	0.433572665048348	-0.751505579440567
448300000	0.311944141412994	-0.808266835932318
449600000	0.182136345677422	-0.845257476673399
450900000	0.0461966597239352	-0.861706922457196
452200000	-0.0921175802666408	-0.85553425589565
453500000	-0.229344179072859	-0.826881899084327
454800000	-0.362023040423052	-0.775729951630823
456100000	-0.48571258067628	-0.701073937013272
457400000	-0.596302405957954	-0.605901929887826
458700000	-0.690502381301263	-0.491518293532069
460000000	-0.763606509032536	-0.361135178787256
461300000	-0.81319900552226	-0.217824595363175
462600000	-0.836833131176995	-0.0670947959408364
463900000	-0.832589872867908	0.086488328126024
465200000	-0.800596497916315	0.237277116539323
466500000	-0.741307412276068	0.380070134679099
467800000	-0.657030186460393	0.509489980939005
469100000	-0.550869300561916	0.621220671430735
470400000	-0.426616326290562	0.710910878996605
471700000	-0.289503576619274	0.776149041015969
473000000	-0.144369601698748	0.815537823734102
474300000	0.00389531905026489	0.828328141013632
475600000	0.150437697059172	0.814994558686826
476900000	0.290171700837276	0.777307676119415
478200000	0.420634568238966	0.716880047043031
479500000	0.536589994886689	0.636695834410477
480800000	0.63673126581816	0.539864986419234
482100000	0.718618911828053	0.429457279556311
483400000	0.7806405799235	0.308395832796703
484700000	0.822513255699169	0.181011084296883
486000000	0.843624110563283	0.049497303572696
487300000	0.843890866901434	-0.082721337509275
488600000	0.823771889573035	-0.212842538166178
489900000	0.783948884141648	-0.33777586584772
491200000	0.725414289251484	-0.454944854445
492500000	0.649213912779459	-0.561675574485408
493800000	0.557322329303293	-0.655816279578348
495100000	0.451588544874331	-0.734510311924015
496400000	0.333729307457827	-0.796508988042717
497700000	0.206985127706108	-0.839607559696084
499000000	0.07372692841436	-0.861462874087564
500300000	-0.0630889671333202	-0.86194930220974
501600000	-0.199509976641871	-0.839886879253875
502900000	-0.332109074066184	-0.794231009728762
504200000	-0.456326787135936	-0.727252401057261
505500000	-0.56919053134035	-0.638470890971457
506800000	-0.665714670344998	-0.530932870114434
508100000	-0.742732871005004	-0.406771890148275
509400000	-0.797691264218513	-0.269295870445743
510700000	-0.827739925956825	-0.123235348803883
512000000	-0.83153754996491	0.026795416666491
513300000	-0.807607850588723	0.175399762820246
514600000	-0.757945308151928	0.317839449190129
515900000	-0.683897028649211	0.448581943483524
517200000	-0.587721840622173	0.564556934070474
518500000	-0.472908317227975	0.660505846265649
519800000	-0.34447824855012	0.734436956097186
521100000	-0.205556581548054	0.784513625667524
522400000	-0.0619068526180703	0.809329000146583
523700000	0.082557766776982	0.808817469842083
525000000	0.222879173493984	0.784665728964233
526300000	0.356311242186779	0.737971287276987
527600000	0.47761154866486	0.670563038900021
528900000	0.585410018831164	0.58506604311468
530200000	0.676790656611559	0.484962165314356
531500000	0.750297402955936	0.372335595000535
532800000	0.804597038799441	0.250676953245082
534100000	0.838132415270081	0.123553715788905
535400000	0.851752120808193	-0.0065662599334244
536700000	0.844922071635062	-0.136346752332273
538000000	0.818273820646229	-0.263186273078965
539300000	0.772014693378934	-0.383776191059927
540600000	0.708132043849665	-0.495856394043133
541900000	0.627351522554591	-0.596888418979128
543200000	0.531558384991037	-0.684006237660808
544500000	0.423218025487018	-0.7555194465515
545800000	0.304004221943572	-0.809521830537342
547100000	0.176989156900273	-0.844652062056646
548400000	0.0446178276388811	-0.858367789115994
549700000	-0.089286839155928	-0.851893102626477
551000000	-0.221825909952071	-0.822580143998534
552300000	-0.349119051313526	-0.772045934015112
553600000	-0.467442284327003	-0.700589878851804
554900000	-0.574036069644453	-0.609440959874721
556200000	-0.664726969074671	-0.500509054545159
557500000	-0.735942229140362	-0.376436917731136
558800000	-0.785641919570871	-0.241261799046511
560100000	-0.811680564239767	-0.098062613421725
561400000	-0.812019052647857	0.0486001214882131
562700000	-0.786822947925283	0.193722447605071
564000000	-0.736587559721693	0.332471996236402
565300000	-0.66249195972218	0.46076123288609
566600000	-0.566753248862797	0.573870088551967
567900000	-0.452705653885213	0.668015855533944
569200000	-0.324292450465073	0.739967145220502
570500000	-0.185911797936911	0.788727695131643
571800000	-0.042064210336961	0.811367815446838
573100000	0.10241438880738	0.809249643033927
574400000	0.242984861738083	0.781541266578062
575700000	0.375445874001475	0.731690216270431
577000000	0.496643335339898	0.659816100471004
578300000	0.602598300041754	0.569780546937467
579600000	0.691289069956114	0.463799938771333
580900000	0.759927347306531	0.346343349645285
582200000	0.808546991078632	0.219774223038266
583500000	0.835326049032246	0.0883388530556897
584800000	0.840267343569496	-0.0452417091845254
586100000	0.824011739337384	-0.177145103250574
587400000	0.787192643923107	-0.304141179902927
588700000	0.730596244260067	-0.423185285678135
590000000	0.655740177067042	-0.531924229921955
591300000	0.564789211780833	-0.627663958494826
592600000	0.45938129736051	-0.707711243887706
593900000	0.342774780748537	-0.770350425928564
595200000	0.216481127758133	-0.813946741034662
596500000	0.0843243296142377	-0.836729774039187
597800000	-0.0513482035456807	-0.837601767608584
599100000	-0.18595374637858	-0.816357685418707
600400000	-0.316627993399502	-0.773124920142105
601700000	-0.43946859174528	-0.707660768883933
603000000	-0.550583175928847	-0.622092367078065
604300000	-0.646072864590329	-0.517702532887896
605600000	-0.723587529129195	-0.397740329412909
606900000	-0.779083666414318	-0.264572045345134
608200000	-0.810906286622536	-0.123187020014916
609500000	-0.817582165956248	0.0228144686846393
610800000	-0.797703506910868	0.168103866873418
612100000	-0.752765065119932	0.30828124659943
613400000	-0.682572114834362	0.437689498793743
614700000	-0.590485047239352	0.552952490087057
616000000	-0.480082615325913	0.649411995368363
617300000	-0.354092294756836	0.724336294785987
618600000	-0.218141028011672	0.775611662023572
619900000	-0.0752622031465662	0.801566109393386
621200000	0.0676316116816784	0.802335743369097
622500000	0.208188945696663	0.77907038828269
623800000	0.34068955680372	0.732623750203811
625100000	0.462146800743672	0.664385470011984
626400000	0.569333544389677	0.578519689649769
627700000	0.660178912522729	0.476399648952268
629000000	0.732433063818843	0.362697916101845
630300000	0.784523927860125	0.239853438333407
631600000	0.816859217832651	0.111276734285175
632900000	0.827084400805986	-0.020080812743858
634200000	0.817124873041894	-0.15018122779191
635500000	0.786792302533584	-0.276677131113375
636800000	0.73748438309384	-0.396211078135153
638100000	0.669850390660028	-0.506902655941867
639400000	0.585796534894752	-0.60514630191063
640700000	0.487578487419583	-0.689787312634406
642000000	0.376716951816618	-0.757667717926652
643300000	0.255566425015577	-0.807163489147601
644600000	0.127337616792511	-0.837199538260724
645900000	-0.00478208204405107	-0.846021920111083
647200000	-0.13756985995577	-0.83350119324575
648500000	-0.26804185458901	-0.799078196583402
649800000	-0.391877439960887	-0.742832568189039
651100000	-0.505702752455575	-0.665753751971935
652400000	-0.6060689380836	-0.570211611526779
653700000	-0.689470957715012	-0.457362093404077
655000000	-0.752209931950827	-0.330549145114066
656300000	-0.793348202661341	-0.194079385689942
657600000	-0.809483605356668	-0.0514537031326365
658900000	-0.800006367488643	0.092799547294029
660200000	-0.765701839956452	0.233680082920232
661500000	-0.707421321756052	0.366676611732745
662800000	-0.62621646066542	0.487253162578475
664100000	-0.525522604295716	0.591376286862604
665400000	-0.40874167346735	0.676008134962456
666700000	-0.279304359397856	0.738554191505664
668000000	-0.142814519385283	0.777881746576897
669300000	-0.00210866784288859	0.792574927554172
670600000	0.137460242103995	0.784121582437708
671900000	0.27195950870095	0.751437580047036
673200000	0.397660551220962	0.698250791313851
674500000	0.511975951587291	0.6256481905927
675800000	0.611628799251867	0.536269153819471
677100000	0.694383057097047	0.433361626761486
678400000	0.759239290354957	0.319549968100818
679700000	0.804683686188613	0.197839700291509
681000000	0.829900041987098	0.0718612765505928
682300000	0.835047744993037	-0.05607756776061
683600000	0.820046796755226	-0.182024288287269
684900000	0.786243713062425	-0.30422806170643
686200000	0.733056600437606	-0.419260455461095
687500000	0.663178447631085	-0.524776422555354
688800000	0.576882756723159	-0.618159055354416
690100000	0.476808978796599	-0.697197228202021
691400000	0.364921725956422	-0.759967476396744
692700000	0.242936420560097	-0.804209145328941
694000000	0.114730666068591	-0.82854584767351
695300000	-0.0176338842447714	-0.832405402733274
696600000	-0.150331779699534	-0.81403251225363
697900000	-0.279903142243536	-0.773739302537016
699200000	-0.401701278496306	-0.711856831637229
700500000	-0.513621709216724	-0.628706656862321
701800000	-0.61057298398146	-0.526287268196048
703100000	-0.689389710102329	-0.407653369736793
704400000	-0.747073965012121	-0.27510044247548
705700000	-0.780469690792958	-0.133572634731751
707000000	-0.787696572802468	0.0125683048767966
708300000	-0.768591621556612	0.15871756060133
709600000	-0.723494524327595	0.299719781283344
710900000	-0.653570616995831	0.42972223518574
712200000	-0.561390557707942	0.545004228761455
713500000	-0.450180925795764	0.641151066419673
714800000	-0.324462539533879	0.715006688926587
716100000	-0.188870579922535	0.765041561218192
717400000	-0.0485582444487295	0.790131667975192
718700000	0.0925635182826914	0.789615430538918
720000000	0.230020750043652	0.765667310487446
721300000	0.358734182129106	0.719360361947839
722600000	0.475532208125854	0.65261281122892
723900000	0.578406392348698	0.568672289795488
725200000	0.664611236258699	0.470765943149684
726500000	0.733612567386071	0.362056699947113
727800000	0.783684758085108	0.245004852360891
729100000	0.814494653338526	0.123282851629538
730400000	0.82600437445821	-0.000371391351390531
731700000	0.818168546154196	-0.123527384485344
733000000	0.792372119987955	-0.243870397494485
734300000	0.74913490569322	-0.357845069498392
735600000	0.689041939727409	-0.463867612807629
736900000	0.614103853047606	-0.560202526960876
738200000	0.525219703483061	-0.643956302599566
739500000	0.42427179283102	-0.714449727611988
740800000	0.313206034986752	-0.768756691760881
742100000	0.19416054457	-0.80613503471933
743400000	0.0690562288936509	-0.824514790215974
744700000	-0.058662233867059	-0.823663095528155
746000000	-0.186671062096749	-0.802183616102046
747300000	-0.310712452159054	-0.759576589170761
