!Agilent N9923A: A.05.17
!Date: Sunday, 01 January 2006 13:12:32
!Model: N9923A
!Serial: MY50371189
!CHECKSUM:0029043396
!Correction: S11(ON U)
!S1P File: Measurement: S11:
# Hz S RI R 50
200000000	0.949428640635678	-0.195489426255427
201300000	0.93073807380584	-0.27300185019251
202600000	0.906049017637818	-0.348673115047799
203900000	0.874965462915073	-0.421896008317619
205200000	0.838371921080977	-0.49329760720964
206500000	0.795608903934507	-0.561655290344105
207800000	0.747294770451207	-0.625866255878519
209100000	0.693583136500703	-0.686739955710942
210400000	0.635616834258322	-0.742651797866303
211700000	0.572777678683661	-0.794188611924452
213000000	0.505968538158345	-0.84005335158495
214300000	0.436315984593535	-0.8799431795432
215600000	0.362957640973282	-0.914715286422198
216900000	0.286749747225953	-0.942724826081772
218200000	0.208379883991563	-0.964538470841077
219500000	0.128657738508817	-0.980331031128915
220800000	0.047793214273333	-0.988790512434543
222100000	-0.0346828095575421	-0.99044368924751
223400000	-0.117282247146599	-0.985029041058293
224700000	-0.199619261155495	-0.97239674237173
226000000	-0.280473368615326	-0.952857079081552
227300000	-0.358862339862403	-0.926500949768916
228600000	-0.435198891821312	-0.89350940573369
229900000	-0.508620427020807	-0.85392130207343
231200000	-0.578104601027993	-0.808207298363122
232500000	-0.643346330735071	-0.756159477739706
233800000	-0.703812347257871	-0.699259105517134
235100000	-0.759085058567808	-0.636847416363133
236400000	-0.808977071255489	-0.56977994284095
237700000	-0.852648497087493	-0.498950555219873
239000000	-0.890284132586518	-0.424501712472188
240300000	-0.921304375542202	-0.347177167811819
241600000	-0.945540600829425	-0.267492151450942
242900000	-0.962876297305144	-0.186208622430683
244200000	-0.97291461716526	-0.103769869542995
245500000	-0.976151093148495	-0.0207185783778452
246800000	-0.97218895234544	0.0618896716677375
248100000	-0.961251702746823	0.143836970857829
249400000	-0.943327317298998	0.224680988720798
250700000	-0.919118574184948	0.303255087928582
252000000	-0.888553030085833	0.37959589110945
253300000	-0.851200325838753	0.452872300221007
254600000	-0.808705098359642	0.522468212589424
255900000	-0.76020290963214	0.588367433001854
257200000	-0.706732176763868	0.65001804622158
258500000	-0.64846376036547	0.706327927030296
259800000	-0.585838634366797	0.757926099616518
261100000	-0.51995989603483	0.80427288442787
262400000	-0.450161806315465	0.844235292258524
263700000	-0.377626512504498	0.878625412399521
265000000	-0.302526385434489	0.907414447055765
266300000	-0.226025775218887	0.929450352542753
267600000	-0.147867000477519	0.945384549285087
268900000	-0.0690318410134848	0.95499944313707
270200000	0.010304801623644	0.958268440165913
271500000	0.0893161804864601	0.955276627413863
272800000	0.167669024208779	0.945765320770401
274100000	0.245046243003902	0.929820014139977
275400000	0.320529503618752	0.90771159252541
276700000	0.394255351382324	0.880088862747315
278000000	0.465218825531051	0.846348940200518
279300000	0.533101946375123	0.806954170950339
280600000	0.597510867712092	0.762431176737742
281900000	0.658504875011431	0.712530943633313
283200000	0.714840604515738	0.658176584417055
284500000	0.76670793163137	0.599202695291374
285800000	0.813545863044618	0.536088987971077
287100000	0.85499258689552	0.469450796975379
288400000	0.891333507748122	0.399460163268689
289700000	0.92159861300966	0.326597915414225
291000000	0.945616761313644	0.251433726978085
292300000	0.963394108194349	0.174735114339387
293600000	0.97488809545847	0.0961997412351455
294900000	0.979643611980716	0.0167530063361646
296200000	0.978215641062712	-0.0626631950390885
297500000	0.969959495843202	-0.142072358260585
298800000	0.95521939446479	-0.22064374413366
300100000	0.934263014343592	-0.297798980594396
301400000	0.906510006823002	-0.373217298863493
302700000	0.872415225191812	-0.446266908714566
304000000	0.832632168019324	-0.516726418542561
305300000	0.786933804468515	-0.583381595317856
306600000	0.735498198885708	-0.646034708247959
307900000	0.679188153872124	-0.704723608511423
309200000	0.617592152633215	-0.75839713418669
310500000	0.552023460694052	-0.806832807120258
311800000	0.482289466719413	-0.850323672877945
313100000	0.409123669388408	-0.887325791864772
314400000	0.332707920795528	-0.918262539674402
315700000	0.25389789431735	-0.942451753851041
317000000	0.173259563661598	-0.960599578585201
318300000	0.0915293868127948	-0.971452249114303
319600000	0.00879025130810156	-0.975847728158114
320900000	-0.0740712983564983	-0.973066375509347
322200000	-0.156450713937266	-0.963104992394769
323500000	-0.238109068038245	-0.945785730095665
324800000	-0.317422970248086	-0.92252470103913
326100000	-0.394872850262162	-0.892204409985238
327400000	-0.469876692469263	-0.855769070917178
328700000	-0.540764245704671	-0.812952223830099
330000000	-0.608321928666999	-0.763723874661253
331300000	-0.670936876235771	-0.709825440449539
332600000	-0.729026085488825	-0.650338926708752
333900000	-0.78144427950073	-0.586595439448841
335200000	-0.828475819380699	-0.518562749593344
336500000	-0.869413209979946	-0.446534261337531
337800000	-0.904096137573008	-0.371776966621849
339100000	-0.932134946552417	-0.294562307919089
340400000	-0.953353567847521	-0.215207015129473
341700000	-0.967788184998978	-0.134603334771938
343000000	-0.975147773543271	-0.0530294324429099
344300000	-0.975786224838641	0.0285383379064251
345600000	-0.969177392544763	0.109574268397944
346900000	-0.956099814355238	0.189660022179895
348200000	-0.935945604176489	0.268205665575207
349500000	-0.909473462854955	0.344587602258842
350800000	-0.876980415581226	0.41818538908811
352100000	-0.838223289313728	0.488679386136413
353400000	-0.794002716573544	0.555418595839845
354700000	-0.744348658610606	0.618233529867118
356000000	-0.689885935490754	0.676500846173565
357300000	-0.630776848180552	0.729911949814329
358600000	-0.567863225254056	0.778253429307201
359900000	-0.501186486808859	0.821213922792755
361200000	-0.431877939424769	0.858328544622576
362500000	-0.359464503879155	0.890129588818589
363800000	-0.28475332813045	0.915221946179925
365100000	-0.208805434445552	0.934583479218739
366400000	-0.131232645837239	0.947601645403587
367700000	-0.0533307858897165	0.954396003183504
369000000	0.0253661771529518	0.954952914466653
370300000	0.103261986343258	0.94919697695463
371600000	0.180275771054822	0.937183090455396
372900000	0.256172879222054	0.919126421749949
374200000	0.330296051575561	0.894971079636812
375500000	0.402215579676031	0.865304379001482
376800000	0.47199511478411	0.829753196592372
378100000	0.538214420728607	0.788986329314048
379400000	0.601355631022845	0.742682303069883
380700000	0.659767673987539	0.691929644130433
382000000	0.715017709902725	0.636564875034466
383300000	0.765165486035546	0.57649173642253
384600000	0.81069809701744	0.513162720643957
385900000	0.850781955421626	0.445809057602879
387200000	0.885332359515137	0.375680735824223
388500000	0.914238632629846	0.302780666713268
389800000	0.937244420406014	0.227939667986304
391100000	0.954376201656612	0.151109380973509
392400000	0.964846831454534	0.0732888255021779
393700000	0.96912894760348	-0.00553213341682912
395000000	0.96677815330355	-0.0843022666240889
396300000	0.957888395814529	-0.162954694566694
397600000	0.94289348894618	-0.240873697544575
398900000	0.920888096847979	-0.317062739271754
400200000	0.893147302448621	-0.391817510565658
401500000	0.858747140866853	-0.463823406962303
402800000	0.818846365756675	-0.532826440606828
404100000	0.772391638613959	-0.598321705524877
405400000	0.72108002282673	-0.659779738304473
406700000	0.664577314892649	-0.716995982183073
408000000	0.603369225999286	-0.769323230053746
409300000	0.538131155061533	-0.816534982820449
410600000	0.467991536618737	-0.857806596321682
411900000	0.395355239686826	-0.893102774353065
413200000	0.319383066619518	-0.922261152743232
414500000	0.241099937837473	-0.945159860964693
415800000	0.161565390535689	-0.960925124884055
417100000	0.079931829661954	-0.970269465935487
418400000	-0.00144948888704827	-0.972348350622946
419700000	-0.0835621431589385	-0.967591337292437
421000000	-0.16481619952058	-0.956008436987249
422300000	-0.244835984880683	-0.937569271578957
423600000	-0.323387230693003	-0.91227426730538
424900000	-0.399132361339901	-0.880465712947302
426200000	-0.472071561307661	-0.842063143325975
427500000	-0.541642457409795	-0.797753766701264
428800000	-0.607342280425392	-0.748151505581524
430100000	-0.668180587942271	-0.693068300205384
431400000	-0.724455577818434	-0.632335765199308
432700000	-0.77549696130686	-0.568004751839123
434000000	-0.820894390197288	-0.499011959862656
435300000	-0.860370758719328	-0.426492487599879
436600000	-0.8929591665625	-0.351054291740613
437900000	-0.919759340033311	-0.273207837167169
439200000	-0.938991610164946	-0.193782466810963
440500000	-0.952320298106152	-0.112309460248155
441800000	-0.958431388742538	-0.0306764929967147
443100000	-0.957774868970967	0.0514886237585888
444400000	-0.950026433195223	0.132951840967284
445700000	-0.935486561368116	0.213256059846256
447000000	-0.9143680896689	0.291966848941077
448300000	-0.88657552166873	0.368326223252931
449600000	-0.852549936642697	0.442151150513364
450900000	-0.812300604846946	0.512321924016908
452200000	-0.76671360785333	0.578935241732482
453500000	-0.715720334738779	0.641162977524152
454800000	-0.659436023015425	0.69870447364852
456100000	-0.599223967482997	0.75125993588488
457400000	-0.534620503742935	0.798315525327984
458700000	-0.466910726540758	0.839549776286957
460000000	-0.39593005702045	0.87523948268297
461300000	-0.322461701373924	0.904330162755845
462600000	-0.247014335590848	0.927355190698815
463900000	-0.170550234696435	0.943887839950955
465200000	-0.0927564699391574	0.954160375079911
466500000	-0.0144012746658018	0.957730369445208
467800000	0.0630145066166267	0.955180805657338
469100000	0.140360456296907	0.946079643266894
470400000	0.216389271294019	0.930936530902978
471700000	0.290762346619059	0.909501816420708
473000000	0.36288171125192	0.882269520909561
474300000	0.43244526094875	0.849882620316311
475600000	0.499253458702916	0.81114083587283
476900000	0.562050540394002	0.768210358484795
478200000	0.622183090400832	0.719749353479552
479500000	0.677592834901908	0.667270546964633
480800000	0.728777909273867	0.61025541426112
482100000	0.775203367229168	0.549908326088162
483400000	0.816699249047344	0.48566538829224
484700000	0.85313248958025	0.418503849443608
486000000	0.884151628075772	0.348891909082969
487300000	0.909695161707796	0.277173070033132
488600000	0.929438087300463	0.202952801719904
489900000	0.943446152930806	0.127495112430298
491200000	0.951550369278013	0.0514004106872963
492500000	0.953461471934181	-0.0254614224698804
493800000	0.949240468910097	-0.102448567197873
495100000	0.939219504859774	-0.179103809943177
496400000	0.923039925618878	-0.254653855746728
497700000	0.900652158615458	-0.329247829058046
499000000	0.872350163625621	-0.401750154683258
500300000	0.838280456605209	-0.472041660988842
501600000	0.798244773020432	-0.539624977241106
502900000	0.752893916043635	-0.604222433768148
504200000	0.702404319764946	-0.664595507987707
505500000	0.646759126928297	-0.721086625542726
506800000	0.58648510774926	-0.772945785355941
508100000	0.521648326595209	-0.819617424695699
509400000	0.453346528055794	-0.861055840411812
510700000	0.381223034599496	-0.896706542669706
512000000	0.306084600681066	-0.926270004652756
513300000	0.22873636157137	-0.949401694447041
514600000	0.149265812588715	-0.965429836679451
515900000	0.0681596964006149	-0.975316995931217
517200000	-0.0127432106898571	-0.977939243057143
518500000	-0.0945905893520386	-0.973574010584553
519800000	-0.176139749539125	-0.962000716958134
521100000	-0.255622517131085	-0.943543654524195
522400000	-0.333947811184502	-0.917939484207086
523700000	-0.410009532120601	-0.886008556689592
525000000	-0.482902632963162	-0.847012255847865
526300000	-0.551731403795784	-0.802205773053155
527600000	-0.617267720209833	-0.751355110844409
528900000	-0.678050398912247	-0.695169963667773
530200000	-0.733381419013354	-0.633706874736191
531500000	-0.78280266616711	-0.568145090555451
532800000	-0.826793663612871	-0.497741130671168
534100000	-0.865046737628219	-0.424599059209581
535400000	-0.896213541506262	-0.348357395453657
536700000	-0.921096777964124	-0.270108416465214
538000000	-0.939088600485852	-0.189690422281119
539300000	-0.94992434258337	-0.108295506876318
540600000	-0.954316821966912	-0.0266291722206484
541900000	-0.951674194887847	0.0549436674397474
543200000	-0.941851013504815	0.135971195641663
544500000	-0.92590387738944	0.215669796673429
545800000	-0.9028573374474	0.293745484930347
547100000	-0.874109785808107	0.369039856709819
548400000	-0.838761585974468	0.441525380169793
549700000	-0.79779184474711	0.510943864444682
551000000	-0.75177568652275	0.576338648264339
552300000	-0.700395278467835	0.637967036839118
553600000	-0.644132211434553	0.694618708803462
554900000	-0.583790019506097	0.746474052835094
556200000	-0.519218710546302	0.793080839221507
557500000	-0.451836464630631	0.834200995362834
558800000	-0.380843492891969	0.869544548540404
560100000	-0.308037228139353	0.899211694781557
561400000	-0.232266791432307	0.922272574980411
562700000	-0.156029814780628	0.939299410019294
564000000	-0.0782269562174766	0.950365264104641
565300000	0.000114532921579526	0.954671672353758
566600000	0.0780584938516383	0.952919044446089
567900000	0.15580255833335	0.944774375808978
569200000	0.23209994200142	0.929804258035021
570500000	0.307305249528503	0.909517287499951
571800000	0.380439358608291	0.88236153596216
573100000	0.450903906013222	0.84950057419761
574400000	0.51832955887921	0.811043063282651
575700000	0.582351853027174	0.767511727322249
577000000	0.643144108354505	0.718486920319993
578300000	0.698964022787499	0.664805593079919
579600000	0.750965664892741	0.606414126807197
580900000	0.797018084162119	0.544595768943085
582200000	0.838637360677696	0.47869936995238
583500000	0.874680585061261	0.4101691666044
584800000	0.904309072504458	0.337609704693326
586100000	0.928622941247007	0.263868996106777
587400000	0.946542452683491	0.18809268194388
588700000	0.958533300673532	0.110988431112327
590000000	0.963967955190304	0.0330779636307978
591300000	0.963146543005411	-0.0456853376828926
592600000	0.956204955672893	-0.123507777410412
593900000	0.94234008605267	-0.200984794476603
595200000	0.922517206450494	-0.276864232868039
596500000	0.896438757221799	-0.351393515293928
597800000	0.86420670965771	-0.423364184606739
599100000	0.826416745607387	-0.492664766152261
600400000	0.782806562179895	-0.559016730085896
601700000	0.733565868183739	-0.621470927618864
603000000	0.68015842579052	-0.680152508306219
604300000	0.621119305717959	-0.733673710457899
605600000	0.558529863723693	-0.782613669282454
606900000	0.491391361317943	-0.826667886373916
608200000	0.420878510175618	-0.864569170301149
609500000	0.34750060323437	-0.896741436619162
610800000	0.27144140115095	-0.923005620913455
612100000	0.193109182935008	-0.942698202870865
613400000	0.113831034021897	-0.956346917533184
614700000	0.0335986568499935	-0.962877060545515
616000000	-0.0479541926160646	-0.962880933067365
617300000	-0.128671579057283	-0.955904436051791
618600000	-0.208242110873932	-0.942385690856763
619900000	-0.286826836082483	-0.922049466757412
621200000	-0.363743643525843	-0.894951600037442
622500000	-0.437773211580777	-0.861628996013568
623800000	-0.508999647393061	-0.821882951515397
625100000	-0.576495362999636	-0.776351564668715
626400000	-0.640643729010685	-0.725171908309795
627700000	-0.699370916992718	-0.669084846428952
629000000	-0.753295405507873	-0.607732608370663
630300000	-0.801595303301754	-0.542044328755228
631600000	-0.844711028834899	-0.472546788442226
632900000	-0.88111204078948	-0.399292983732369
634200000	-0.910912714797337	-0.323729119137942
635500000	-0.933996098673903	-0.24552179449947
636800000	-0.951185053423994	-0.165591446790998
638100000	-0.960591132258475	-0.0844938057120238
639400000	-0.963099993160066	-0.00325193947311381
640700000	-0.958942272610616	0.0782511109651222
642000000	-0.947839838497032	0.1587302636148
643300000	-0.929751373509721	0.237921985177249
644600000	-0.903869632825406	0.315487446690133
645900000	-0.873367134410957	0.390208908311801
647200000	-0.835964102866541	0.462127141177976
648500000	-0.792571304496713	0.530294082795201
649800000	-0.743690496277345	0.594477474579294
651100000	-0.689941981221296	0.654289547153569
652400000	-0.631209031359453	0.709701129507651
653700000	-0.568030256228711	0.75945140140968
655000000	-0.501343530634697	0.804193964446114
656300000	-0.431039952171449	0.842736093170867
657600000	-0.357991212531261	0.875605258941033
658900000	-0.282838346261649	0.902261194667362
660200000	-0.205828689739659	0.922181124855513
661500000	-0.127959001775287	0.93631405126309
662800000	-0.0490448912488425	0.943679723455598
664100000	0.0302863624621695	0.944432759283197
665400000	0.109126250591389	0.938883350970784
666700000	0.187456431456306	0.927332956911112
668000000	0.264010155863229	0.90923842202873
669300000	0.33877983330997	0.884759213795579
670600000	0.411305060844041	0.854865364538702
671900000	0.480570081007179	0.81855801303652
673200000	0.546956587551099	0.777556795728376
674500000	0.609822180774603	0.73095893432551
675800000	0.668388046319355	0.679487041419487
677100000	0.722713472327192	0.623669250217579
678400000	0.772239220814111	0.563608446598472
679700000	0.816935897522923	0.500137547928789
681000000	0.856103825556438	0.432877819325134
682300000	0.889603961944172	0.362680706962929
683600000	0.916856136391603	0.290524612798677
684900000	0.938726385870105	0.216195874089664
686200000	0.954052494757634	0.14042206112832
687500000	0.963839771091202	0.0635052925109778
688800000	0.966711295154263	-0.0141018241470691
690100000	0.963029004463613	-0.0913544667772907
691400000	0.953227530682757	-0.168526343893043
692700000	0.937930475420221	-0.243908364123316
694000000	0.915549494504722	-0.318390735733459
695300000	0.886987616122027	-0.390503545343823
696600000	0.853017490503981	-0.460087276841344
697900000	0.81340192653	-0.527319316363037
699200000	0.767756097851358	-0.590722105499904
700500000	0.717773816612206	-0.650091915128704
701800000	0.662332431936446	-0.70556807077225
703100000	0.602812420326887	-0.756489875145946
704400000	0.538970152578754	-0.802248628682551
705700000	0.471309831376061	-0.842803806806395
707000000	0.40064963355525	-0.877348295953733
708300000	0.327048377154254	-0.90637368500691
709600000	0.250653327722725	-0.929437782263063
710900000	0.173315076511504	-0.945535815830582
712200000	0.0942938032132308	-0.955709366397364
713500000	0.0146129499393349	-0.959925374313239
714800000	-0.0655399950758935	-0.95666296011725
716100000	-0.145309433830879	-0.947257341123135
717400000	-0.223720698820482	-0.930594827087531
718700000	-0.301339567567459	-0.907520044312304
720000000	-0.37662405823974	-0.877996761923891
721300000	-0.449248326235977	-0.842398064379396
722600000	-0.51907762331029	-0.801385929215361
723900000	-0.585518294246016	-0.75406138791953
725200000	-0.647153095527265	-0.700415422647547
726500000	-0.704468112119131	-0.642562073197002
727800000	-0.757133446230333	-0.579828494754586
729100000	-0.803778570858096	-0.512308430486393
730400000	-0.845263461607216	-0.441078937093704
731700000	-0.879782950092509	-0.367183371426676
733000000	-0.908389636357832	-0.290323630334803
734300000	-0.930521189487092	-0.211270706826317
735600000	-0.9450180427309	-0.130004140764963
736900000	-0.953214133668304	-0.0482746642351166
738200000	-0.953872708308298	0.033870532274816
739500000	-0.947522124504087	0.116166211892056
740800000	-0.934309184284952	0.196922055551181
742100000	-0.914142599025953	0.276193414323273
743400000	-0.887071764645097	0.353571443944312
744700000	-0.8535936047721	0.428416692888981
746000000	-0.814155948511194	0.499516630940991
747300000	-0.768435733690348	0.567240921348357
