!Agilent N9923A: A.05.17
!Date: Sunday, 01 January 2006 13:16:05
!Model: N9923A
!Serial: MY50371189
!CHECKSUM:1486459409
!Correction: S11(ON U)
!S1P File: Measurement: S11:
# Hz S RI R 50
200000000	0.855336457303334	-0.274947277776002
201300000	0.804841084462969	-0.4009092675701
202600000	0.735468280463037	-0.518439101094026
203900000	0.648345389608306	-0.625042382597233
205200000	0.544209476481845	-0.718587746917601
206500000	0.425717715021151	-0.79568712731681
207800000	0.294136377974998	-0.853615521594761
209100000	0.152556252207344	-0.890511132836266
210400000	0.00514225421886622	-0.904171768156162
211700000	-0.145053342563624	-0.892635826178692
213000000	-0.29328969642753	-0.855356868337495
214300000	-0.434037214113015	-0.792522779368317
215600000	-0.564339216258988	-0.704588487626913
216900000	-0.677877723367866	-0.593486426384141
218200000	-0.770599614014166	-0.462314995607694
219500000	-0.838556022715454	-0.315759140579911
220800000	-0.878840620294374	-0.158218210401509
222100000	-0.889324567294484	0.00483265000461285
223400000	-0.869874164074462	0.167165637455315
224700000	-0.82133788064354	0.322818665159872
226000000	-0.745753581826403	0.465783354191811
227300000	-0.646495108018655	0.591310459731844
228600000	-0.528146915548203	0.69621382580304
229900000	-0.395486345058628	0.777109830426843
231200000	-0.252704563671554	0.833285169996899
232500000	-0.104727566159061	0.863538536803257
233800000	0.0437214067407504	0.869072554431938
235100000	0.188328840370414	0.850232374805713
236400000	0.325649927211948	0.809153586762896
237700000	0.452518894167515	0.747435497883579
239000000	0.566885363801761	0.667783748813294
240300000	0.666439757889696	0.572970774067427
241600000	0.749166586983782	0.465260002868262
242900000	0.813744064229288	0.347203821117669
244200000	0.859980510873377	0.221989261055587
245500000	0.886805634378597	0.0915801775010369
246800000	0.893658428108115	-0.0407769620812161
248100000	0.880868852476789	-0.17285096450982
249400000	0.848340611482341	-0.301807100444825
250700000	0.796627864252845	-0.424932527594791
252000000	0.725836025720803	-0.539365214297263
253300000	0.637625822840577	-0.642751310766024
254600000	0.533326670923494	-0.732052964301346
255900000	0.414950978436738	-0.804879930683449
257200000	0.284540195504183	-0.858377036099045
258500000	0.145197504819787	-0.891262654091798
259800000	0.000419251920101802	-0.900286943066613
261100000	-0.146638312276186	-0.884212299554522
262400000	-0.290932805960807	-0.844342020422422
263700000	-0.428155839943104	-0.778840210681016
265000000	-0.553175232896081	-0.689248153227105
266300000	-0.662242767175796	-0.578303873015575
267600000	-0.75059196899576	-0.448771007043231
268900000	-0.815124484887561	-0.304204127871376
270200000	-0.852788856802963	-0.150152861321224
271500000	-0.862293922093217	0.00859907812027378
272800000	-0.843507321369974	0.16639231951892
274100000	-0.796970271500126	0.317280342172674
275400000	-0.724761263628255	0.456774405436367
276700000	-0.630113460168275	0.580325858475919
278000000	-0.516484126365509	0.684207410873684
279300000	-0.388161446054179	0.765975420619134
280600000	-0.250191474172409	0.823959718565342
281900000	-0.10603633292944	0.857335113498463
283200000	0.0389098947238194	0.86629843491481
284500000	0.181298279629367	0.851349599105051
285800000	0.31728783441537	0.81431476560674
287100000	0.443627895436025	0.756944040855495
288400000	0.558307720038012	0.681512878244261
289700000	0.658388693149879	0.589678762723922
291000000	0.742002908783606	0.484681006719287
292300000	0.807863041086213	0.369344157842316
293600000	0.855254817308	0.24558362870196
294900000	0.883178130438788	0.116658202374737
296200000	0.891435495224898	-0.0144445925390807
297500000	0.879253290070032	-0.145686554094968
298800000	0.847521904382241	-0.274005533927741
300100000	0.796596594721999	-0.396389971686666
301400000	0.727244980329493	-0.510536636043168
302700000	0.640287516799009	-0.613547158867455
304000000	0.537077687613227	-0.70278720486731
305300000	0.42019646058379	-0.775586990691391
306600000	0.29151961049826	-0.829687247944598
307900000	0.153641753145495	-0.863554280898561
309200000	0.0102066078862578	-0.873769882825817
310500000	-0.134750372734095	-0.860557205731802
311800000	-0.27820504989812	-0.822887100589362
313100000	-0.414461585471199	-0.760435888068582
314400000	-0.540109337759313	-0.67405073556003
315700000	-0.649635518181935	-0.566161895349479
317000000	-0.739555881658241	-0.439567709482254
318300000	-0.805598950813061	-0.298143221894069
319600000	-0.845925961913252	-0.146207283101943
320900000	-0.858070768494097	0.0108583529520251
322200000	-0.841554922578875	0.166989039841417
323500000	-0.797448366765673	0.317494254633106
324800000	-0.72728210481096	0.45665406827141
326100000	-0.634126096244518	0.579855284773421
327400000	-0.521806203048477	0.683226281892721
328700000	-0.394079770917512	0.764766775090315
330000000	-0.256621035785383	0.821819330678373
331300000	-0.112991500985452	0.85376566099275
332600000	0.0312875042335001	0.860990799528807
333900000	0.172901732793348	0.844911364071454
335200000	0.308052685199044	0.805874860002883
336500000	0.432690300887264	0.746436465819891
337800000	0.545239058641943	0.668888350014887
339100000	0.643158951149341	0.575932634672102
340400000	0.724477903480382	0.469898946921698
341700000	0.788241676815173	0.354029042851049
343000000	0.833190976985408	0.23075058127484
344300000	0.859035087471246	0.102165410229742
345600000	0.86524199837475	-0.0281007931772253
346900000	0.851548621299314	-0.157978790691169
348200000	0.818650019220018	-0.284678146843011
349500000	0.766840192518012	-0.405230231216255
350800000	0.696895605302565	-0.517311123181352
352100000	0.609901322057301	-0.618343346092652
353400000	0.507788736984237	-0.705399533959762
354700000	0.391617834116098	-0.776530378185291
356000000	0.264392408256809	-0.828634053912019
357300000	0.128607777179656	-0.860352323781536
358600000	-0.012507578550774	-0.869870058017987
359900000	-0.155286426052479	-0.855473334089523
361200000	-0.295500538916519	-0.816843726525422
362500000	-0.428623629048776	-0.754031087110264
363800000	-0.550534256168609	-0.66824555401887
365100000	-0.656705087648507	-0.560974035859369
366400000	-0.743033371796887	-0.435688884225802
367700000	-0.80602859260613	-0.295798813970857
369000000	-0.843110145787705	-0.146394572457717
370300000	-0.852709542303673	0.0077116481305096
371600000	-0.834350040352761	0.160988203376701
372900000	-0.788961116908609	0.308193311891353
374200000	-0.718254267034964	0.44424804799507
375500000	-0.625668257108774	0.564487723159604
376800000	-0.513898687109094	0.666009476697525
378100000	-0.388008489263294	0.745272726439693
379400000	-0.251548704003896	0.801227721980842
380700000	-0.110452229734362	0.832097120682733
382000000	0.0325665521254521	0.840008749046657
383300000	0.172802161816971	0.823694051671613
384600000	0.306453147701658	0.786125574537329
385900000	0.430521041903227	0.727606803044057
387200000	0.542435436234292	0.651427150758277
388500000	0.639957613016505	0.559840595557598
389800000	0.721705464563357	0.455435074891611
391100000	0.785302992003253	0.340581314298169
392400000	0.83048812877926	0.218348245994046
393700000	0.856788802384648	0.0911788972421316
395000000	0.862938269782037	-0.0379631786017873
396300000	0.849774962454225	-0.166667523724074
397600000	0.81701871958128	-0.291867979077703
398900000	0.765383961948351	-0.411105161583966
400200000	0.695876855105092	-0.52166720119653
401500000	0.609158351050677	-0.620920599148617
402800000	0.507108846184252	-0.706113605020638
404100000	0.391666318529796	-0.774772383918514
405400000	0.265584533881298	-0.824695496787232
406700000	0.131067155029676	-0.854635465158741
408000000	-0.00828022438614821	-0.861853899776992
409300000	-0.148812552625541	-0.845701307045871
410600000	-0.286649040020324	-0.805459603003902
411900000	-0.417031671198034	-0.741872299643233
413200000	-0.536442788781205	-0.655816885232742
414500000	-0.640059331007279	-0.549128596459938
415800000	-0.724053936578637	-0.424895026894028
417100000	-0.785560997683977	-0.286654203026259
418400000	-0.821481047538324	-0.13936216166962
419700000	-0.830706747880803	0.0126766130951556
421000000	-0.813095193557009	0.163913342670401
422300000	-0.768160656291012	0.30906959716625
423600000	-0.698991626151589	0.443892430667445
424900000	-0.607575542251816	0.562714906694992
426200000	-0.498054628667808	0.663412411935118
427500000	-0.373935365268501	0.742284146660042
428800000	-0.239852365656831	0.79805334257099
430100000	-0.100084645479934	0.830023381344501
431400000	0.0406918551936165	0.837630108059489
432700000	0.179081033221343	0.822224734668209
434000000	0.310817531655502	0.784728207943103
435300000	0.432969159367119	0.727225659628353
436600000	0.542850840629579	0.65246035686985
437900000	0.63858282967418	0.561884231590382
439200000	0.718355643314433	0.45929118830422
440500000	0.780403126520284	0.346189686541927
441800000	0.82405376133119	0.226201977113118
443100000	0.849363246307644	0.101833743917903
444400000	0.854978384177265	-0.0250277623314393
445700000	0.841722220853479	-0.150582987073004
447000000	0.809783202999076	-0.273065767561923
448300000	0.759611257226108	-0.389925570471216
449600000	0.692145115808107	-0.4983736497041
450900000	0.608404283828018	-0.595847058189919
452200000	0.509620034175672	-0.680222165970643
453500000	0.3981219686216	-0.749129531760105
454800000	0.275504212352903	-0.801078123105319
456100000	0.144337117096313	-0.832381603178833
457400000	0.00795368119721098	-0.843011180003902
458700000	-0.130910839808874	-0.831058855929426
460000000	-0.267172244728826	-0.795533731331237
461300000	-0.398158197378877	-0.73652028591042
462600000	-0.518470012613071	-0.655208350338141
463900000	-0.624219292525559	-0.552620005803498
465200000	-0.711360135594899	-0.431813178585801
466500000	-0.776221932235868	-0.29639389982894
467800000	-0.815862190094197	-0.150251149482612
469100000	-0.828439088505949	0.00124512114732313
470400000	-0.813334586369257	0.15282192779782
471700000	-0.770994433217577	0.298566489066033
473000000	-0.703035736585563	0.433721478633758
474300000	-0.612535602441145	0.553595706221362
475600000	-0.502814476989955	0.654031098329177
476900000	-0.37890732272781	0.732394730561311
478200000	-0.24451767636641	0.787765893707234
479500000	-0.105062853026875	0.817956012416259
480800000	0.0355197821272294	0.823955330955426
482100000	0.172780767482963	0.80674743561995
483400000	0.303799866072615	0.767859858313472
484700000	0.42422190480296	0.709557963199994
486000000	0.531973581373362	0.634178783336124
487300000	0.625591705238926	0.54391814639504
488600000	0.70337597988682	0.441118650607006
489900000	0.763822836160766	0.329116298855918
491200000	0.806423013404214	0.210168710845373
492500000	0.830510276960962	0.08707610631287
493800000	0.83564647229965	-0.0378518543080421
495100000	0.822766027609633	-0.162067967386945
496400000	0.790983191695164	-0.28299379868138
497700000	0.741148007791444	-0.398544475643602
499000000	0.674653364448902	-0.505524751573713
500300000	0.591554502521627	-0.602179077774754
501600000	0.493768204647228	-0.68562021051318
502900000	0.382692093486128	-0.753638700477295
504200000	0.261435359129684	-0.804260915457768
505500000	0.131235924938268	-0.835108088311695
506800000	-0.00382353830453948	-0.84455510626643
508100000	-0.14036591639799	-0.831397862077775
509400000	-0.27522338886674	-0.795132226866803
510700000	-0.403380840004431	-0.735547491016333
512000000	-0.521472387529063	-0.654002353786576
513300000	-0.623995165660562	-0.551964364937077
514600000	-0.70783971098705	-0.431815667219593
515900000	-0.769733544672848	-0.298329640006915
517200000	-0.807339395101976	-0.155230559101243
518500000	-0.81837121164205	-0.00745236209481971
519800000	-0.803204281771427	0.140179650048193
521100000	-0.762249105718535	0.281890698304473
522400000	-0.697311828140149	0.413618860767463
523700000	-0.61103708858896	0.530573541889759
525000000	-0.506859053472366	0.630100250496417
526300000	-0.3889359532652	0.709543195708735
527600000	-0.261203992345266	0.766664013052825
528900000	-0.127315155246019	0.801193878982011
530200000	0.00798441005792724	0.813534800724123
531500000	0.141948740959339	0.804007965250835
532800000	0.270568130350792	0.773781014746084
534100000	0.390673861248622	0.724110656736309
535400000	0.500532729667472	0.657283929998229
536700000	0.597786029504769	0.575411222178596
538000000	0.680382094875791	0.480340624239523
539300000	0.747531383742471	0.375139143200398
540600000	0.797453260808457	0.261511221678765
541900000	0.829557502559359	0.142013166810852
543200000	0.843438268836232	0.0193476501910013
544500000	0.838662691794279	-0.104309771067587
545800000	0.815100096238412	-0.226179935563659
547100000	0.773047110200756	-0.343729708044429
548400000	0.712780248203701	-0.45426392935237
549700000	0.635441584927224	-0.555121813204067
551000000	0.542129712600859	-0.643956621851591
552300000	0.434452074056997	-0.717601171370309
553600000	0.314128485251664	-0.773948078437799
554900000	0.184512494864668	-0.810344231469194
556200000	0.0482126045325171	-0.825186200261429
557500000	-0.0912580311642948	-0.816709218715686
558800000	-0.229160505821611	-0.783996501202363
560100000	-0.361188279982353	-0.726701322913252
561400000	-0.483127983397526	-0.646151177904422
562700000	-0.590117757179985	-0.543184787011059
564000000	-0.677612884111641	-0.422025848588767
565300000	-0.742356842556115	-0.285471227011415
566600000	-0.780825488709991	-0.13847055533098
567900000	-0.791891953344623	0.0134749843035833
569200000	-0.774304968182905	0.164519352174399
570500000	-0.72964187269055	0.309136284425563
571800000	-0.659507076395201	0.442287564835601
573100000	-0.567489306332137	0.559647049055915
574400000	-0.456568127705063	0.656934800625789
575700000	-0.332422931613096	0.73180329350006
577000000	-0.198820325083988	0.78304788515016
578300000	-0.0607855957466202	0.809872161671128
579600000	0.0773136856747243	0.812832417614185
580900000	0.211255551373168	0.792410821145602
582200000	0.337727841380588	0.751528444340639
583500000	0.453579434036017	0.691776130592454
584800000	0.557121925238786	0.614380390659953
586100000	0.645816895814393	0.52399660746819
587400000	0.718448020285772	0.422073116578582
588700000	0.77378624506112	0.312030066212221
590000000	0.812020685854928	0.195736621342626
591300000	0.832167422481051	0.0755281744118359
592600000	0.834203096553053	-0.0451907138415782
593900000	0.81849751534945	-0.16517924210207
595200000	0.785222692238349	-0.280972000944353
596500000	0.735408107816293	-0.391088537177522
597800000	0.669265050383856	-0.493126809115267
599100000	0.588304588591471	-0.585056504689448
600400000	0.493598414800455	-0.664719519784788
601700000	0.387047960499933	-0.729724885147582
603000000	0.270099195997267	-0.778399696713118
604300000	0.145447070091358	-0.808490518010282
605600000	0.0156308630881122	-0.818985400407935
606900000	-0.117011552591732	-0.808360051541573
608200000	-0.247791280626382	-0.775625404446947
609500000	-0.373396610859277	-0.720993360916001
610800000	-0.490155272090676	-0.64404863694893
612100000	-0.593526743154976	-0.547156163299267
613400000	-0.679541769088531	-0.432044818461006
614700000	-0.744461170818054	-0.301819975616909
616000000	-0.785533210262225	-0.160322019017361
617300000	-0.799744639552489	-0.0129913591947052
618600000	-0.787398487769686	0.135209551142616
619900000	-0.747515672744633	0.278948500618271
621200000	-0.681702752210753	0.412564804666767
622500000	-0.593267080646635	0.531560091660252
623800000	-0.485489325833257	0.631132696783987
625100000	-0.362331262595361	0.70915645631289
626400000	-0.229199291787681	0.763306178102113
627700000	-0.0902198228327847	0.792621961764782
629000000	0.0490332343628743	0.797737096158189
630300000	0.185131205510858	0.778695268202739
631600000	0.313738901883042	0.738309334353559
632900000	0.432273299992556	0.678494613447048
634200000	0.537617430304526	0.601695029178276
635500000	0.627842291767395	0.510997745946649
636800000	0.701725076142401	0.408625476361311
638100000	0.758216510094037	0.29777134278268
639400000	0.7969880635657	0.180880845461181
640700000	0.817545351291512	0.0611235724132696
642000000	0.81997709876261	-0.0599762100644393
643300000	0.804657287387913	-0.179052714171417
644600000	0.772391476146081	-0.293999750245594
645900000	0.723167884780438	-0.403367192568387
647200000	0.658379004791118	-0.50442423379499
648500000	0.578789629924776	-0.595445554393704
649800000	0.486099701678991	-0.673763468846628
651100000	0.381343246272266	-0.737546648601127
652400000	0.267174862159351	-0.785655396786371
653700000	0.144746398770998	-0.815799917942971
655000000	0.0177978261844811	-0.825764655833782
656300000	-0.112069938528831	-0.8159718006136
657600000	-0.239785515264175	-0.784208442971341
658900000	-0.363568838293114	-0.730186061579805
660200000	-0.477970967428525	-0.655045409460011
661500000	-0.579442859950206	-0.559776913780392
662800000	-0.664487309450779	-0.446098566661386
664100000	-0.72868533665532	-0.317383353040745
665400000	-0.769409814814817	-0.177729380558871
666700000	-0.783899993537625	-0.0315642952575739
668000000	-0.771558937644133	0.1164305279169
669300000	-0.731841892283934	0.260216179867989
670600000	-0.666609215253318	0.394283566461092
671900000	-0.578276586871954	0.513740157949929
673200000	-0.470264849614637	0.614114023076051
674500000	-0.346724829673263	0.692547374418932
675800000	-0.212300196652831	0.747444630032218
677100000	-0.0730975029680303	0.776889737131816
678400000	0.0675749660937862	0.781066332653683
679700000	0.204049561917976	0.761920068882343
681000000	0.333142834004868	0.720471278988662
682300000	0.451317442110606	0.65916548453616
683600000	0.555382626192051	0.581132490265935
684900000	0.644689245926311	0.489349264096584
686200000	0.716138073501824	0.386289208154676
687500000	0.770780704907559	0.275281589585765
688800000	0.806880100564957	0.158521286745329
690100000	0.824637424249208	0.0392605440758989
691400000	0.823842049876443	-0.0804196076733139
692700000	0.806274798118973	-0.197107157209623
694000000	0.770840896029447	-0.309791518355375
695300000	0.719728423768834	-0.415501962586374
696600000	0.653639874410774	-0.512478955185747
697900000	0.572903564295073	-0.599596785225595
699200000	0.480238106422031	-0.673856565797659
700500000	0.376476861301414	-0.734003107706933
701800000	0.26368892563249	-0.778101498541875
703100000	0.143959582477491	-0.805175457362287
704400000	0.0192746106686525	-0.813596359826371
705700000	-0.106672660193285	-0.80185345921912
707000000	-0.231513873455363	-0.770328562551313
708300000	-0.351901357333314	-0.717885923544145
709600000	-0.464230361542947	-0.644761506296747
710900000	-0.563918111745885	-0.552671301971291
712200000	-0.648666885308447	-0.443075177161965
713500000	-0.71374295069205	-0.318785239149025
714800000	-0.756496149236206	-0.182951949738181
716100000	-0.775041968759879	-0.0401619460766491
717400000	-0.767033528639186	0.1047916249919
718700000	-0.732683048505471	0.24708146072694
720000000	-0.673020619397139	0.380502903519935
721300000	-0.590391674161384	0.500905849752319
722600000	-0.487217101746775	0.603798609324307
723900000	-0.368453661796033	0.685607242685151
725200000	-0.238123770929111	0.743867245454427
726500000	-0.101232118966553	0.777546093064003
727800000	0.0372549648010527	0.786342753299134
729100000	0.173195972042876	0.772017070791148
730400000	0.301381724053441	0.734596306303833
731700000	0.420035052212022	0.677149208792635
733000000	0.525855700898013	0.602515048593095
734300000	0.616603256699681	0.512923712781596
735600000	0.690164029720466	0.412257550755404
736900000	0.746556057343119	0.303548858925496
738200000	0.785001547324044	0.188379216133055
739500000	0.805157449866084	0.0699976178597145
740800000	0.807713757527123	-0.0488039056866993
742100000	0.792427459237044	-0.166212871163458
743400000	0.760137570422424	-0.279199424606915
744700000	0.711912009424239	-0.386394062810783
746000000	0.647814189740921	-0.485414499873782
747300000	0.569824985024356	-0.573755992004099
