!Agilent N9923A: A.05.17
!Date: Sunday, 01 January 2006 12:21:07
!Model: N9923A
!Serial: MY50371189
!CHECKSUM:1466837219
!Correction: S11(ON U)
!S1P File: Measurement: S11:
# Hz S DB R 50
2000000000	-2.47719672403164	-1.70939827179028
2000800000	-2.48972295552957	-2.85687982024861
2001600000	-2.50415222727991	-4.06816035894443
2002400000	-2.51857754275507	-5.17722747455775
2003200000	-2.52562954266529	-6.26092086653491
2004000000	-2.53966234113295	-7.46509509473348
2004800000	-2.54861467113761	-8.58917326453399
2005600000	-2.55665519213808	-9.81562313016865
2006400000	-2.57395117234558	-10.9580639028884
2007200000	-2.60052874926834	-12.1304037000489
2008000000	-2.61604908623945	-13.3322916072
2008800000	-2.63497586861662	-14.4682908872435
2009600000	-2.64715463384282	-15.6955882930901
2010400000	-2.66403112177731	-16.847986506494
2011200000	-2.68664586174858	-18.000441295481
2012000000	-2.70776260159444	-19.1698643284367
2012800000	-2.72696101655825	-20.380771457362
2013600000	-2.74190061965171	-21.5602559936348
2014400000	-2.76740779550187	-22.7750135368022
2015200000	-2.78275311867861	-23.9357265739113
2016000000	-2.79100116909709	-25.1427109160159
2016800000	-2.813477979475	-26.3526893852859
2017600000	-2.83190135813516	-27.5354204565544
2018400000	-2.85342628500738	-28.7019804396536
2019200000	-2.87176882219793	-29.9271352824688
2020000000	-2.89082001833051	-31.1186992831434
2020800000	-2.91067460769796	-32.3189932556755
2021600000	-2.93191335229567	-33.5387070037242
2022400000	-2.94703531911907	-34.7476471847057
2023200000	-2.96481187359046	-35.9596823438075
2024000000	-2.98437570286083	-37.1866483436839
2024800000	-2.99742386244523	-38.4298734444017
2025600000	-3.0146733041079	-39.6470535095712
2026400000	-3.03373968510525	-40.9077766659606
2027200000	-3.05097947326034	-42.1612618097552
2028000000	-3.06812902587545	-43.3982410741462
2028800000	-3.08468987695747	-44.6757516975631
2029600000	-3.10080882958888	-45.9365330790589
2030400000	-3.1154235621507	-47.2306991919002
2031200000	-3.13585891588749	-48.5254388885099
2032000000	-3.1582891057743	-49.8123873927132
2032800000	-3.17630527650085	-51.1107690129964
2033600000	-3.19550136662402	-52.4092776108974
2034400000	-3.21651763693087	-53.7372311090003
2035200000	-3.23669218322057	-55.0349099655211
2036000000	-3.25676584293113	-56.392385839669
2036800000	-3.27813688734489	-57.6768361481255
2037600000	-3.30332868226047	-59.0338466339197
2038400000	-3.32068359567512	-60.3134278769933
2039200000	-3.34340712958006	-61.6590600510127
2040000000	-3.36601318993277	-63.0087764696142
2040800000	-3.39402202749937	-64.3310392862858
2041600000	-3.40492023057717	-65.7157632090209
2042400000	-3.43830027784506	-67.0290448342915
2043200000	-3.46399919387122	-68.3586717313335
2044000000	-3.48656360595726	-69.6930444986367
2044800000	-3.50516584110095	-71.0513722466073
2045600000	-3.52663606785085	-72.396955430804
2046400000	-3.54831358948152	-73.7817254106278
2047200000	-3.56852883871309	-75.1405297687431
2048000000	-3.58427697863833	-76.5210687902519
2048800000	-3.61087506632566	-77.9194452699525
2049600000	-3.63061386459651	-79.3718663875383
2050400000	-3.65612360834139	-80.7881659950127
2051200000	-3.67639916125003	-82.2061434622642
2052000000	-3.70478795955275	-83.6270108885396
2052800000	-3.73239819236773	-85.0502508647587
2053600000	-3.76006161307742	-86.4666643080452
2054400000	-3.78938677222064	-87.8594768925395
2055200000	-3.81352345844014	-89.3032892014314
2056000000	-3.84327526264036	-90.6969873069614
2056800000	-3.86638708403134	-92.132122209096
2057600000	-3.8835429239523	-93.5564980097719
2058400000	-3.90952365877883	-95.0033040780866
2059200000	-3.93628225612667	-96.458849448945
2060000000	-3.961048290071	-97.89303427598
2060800000	-3.99045198287272	-99.3367769892224
2061600000	-4.0188272099921	-100.84274573182
2062400000	-4.04385589317785	-102.280165252595
2063200000	-4.06664316529011	-103.735189587501
2064000000	-4.0906339530918	-105.240911786309
2064800000	-4.10675094331822	-106.725636030254
2065600000	-4.13365503037381	-108.190386821967
2066400000	-4.15021216311586	-109.706644328351
2067200000	-4.17796259633519	-111.265377747086
2068000000	-4.19194463289978	-112.777309576996
2068800000	-4.22022627932512	-114.266970702904
2069600000	-4.23348711066398	-115.843930869624
2070400000	-4.25746643435852	-117.324763774916
2071200000	-4.26493226630496	-118.913059121341
2072000000	-4.28992728368254	-120.489846458
2072800000	-4.30145449063626	-122.136540277342
2073600000	-4.32045392535963	-123.80086852778
2074400000	-4.34576002315807	-125.394949124468
2075200000	-4.36671213918931	-127.14910164086
2076000000	-4.39231520702666	-128.89421003418
2076800000	-4.41646820090601	-130.571445195502
2077600000	-4.44234198323047	-132.287510329378
2078400000	-4.48305103339371	-134.058706934856
2079200000	-4.50726179443852	-135.795632471669
2080000000	-4.54989527512817	-137.564180034014
2080800000	-4.58287849633883	-139.326948186164
2081600000	-4.62109631126134	-141.082693205804
2082400000	-4.66899671995572	-142.875224051028
2083200000	-4.71509863345878	-144.590148266681
2084000000	-4.75043783072635	-146.376436601958
2084800000	-4.80643436138123	-148.1003584599
2085600000	-4.85235999500131	-149.836705898959
2086400000	-4.89897379684754	-151.573902790113
2087200000	-4.93588079553191	-153.303040317413
2088000000	-4.98560218212042	-155.043935630683
2088800000	-5.03051650022508	-156.81968418417
2089600000	-5.07440658655413	-158.538571350457
2090400000	-5.11716280977127	-160.277967659643
2091200000	-5.16313322423501	-161.951804263168
2092000000	-5.20058907230292	-163.679919936272
2092800000	-5.24715557962128	-165.471783590929
2093600000	-5.28618928553307	-167.135251181869
2094400000	-5.31798059797114	-168.80537368966
2095200000	-5.35592618066004	-170.575265418629
2096000000	-5.39690275362173	-172.307732986208
2096800000	-5.43134184944127	-174.050231004118
2097600000	-5.46961767721144	-175.761759490241
2098400000	-5.51208160725081	-177.462096651593
2099200000	-5.54357059927755	-179.172739957847
2100000000	-5.57347640461253	179.157959764825
2100800000	-5.60818619789754	177.465266527163
2101600000	-5.64192806966872	175.768941872056
2102400000	-5.66653852210081	174.089097084634
2103200000	-5.69176810927885	172.445730638048
2104000000	-5.71723888767289	170.804442417697
2104800000	-5.73905687881645	169.135948132294
2105600000	-5.74935938611854	167.445380691806
2106400000	-5.76771085151773	165.79061153204
2107200000	-5.78052972646138	164.135912738035
2108000000	-5.78892935605948	162.440346993046
2108800000	-5.80100673973166	160.776336910398
2109600000	-5.80196136255234	159.041159861015
2110400000	-5.82296813687456	157.377626569752
2111200000	-5.83481109849404	155.709951866994
2112000000	-5.85977053467111	153.942626833459
2112800000	-5.87505598850186	152.277705620618
2113600000	-5.88234374600385	150.65895272569
2114400000	-5.89427955522798	148.982436747042
2115200000	-5.90238139455639	147.372922115655
2116000000	-5.90945813020245	145.747987738972
2116800000	-5.91198683868868	144.14263709982
2117600000	-5.91422255057194	142.548720698747
2118400000	-5.91019589330591	140.916261707439
2119200000	-5.90265729508756	139.302965957016
2120000000	-5.89595635022926	137.680936543226
2120800000	-5.88546191514278	136.079565141036
2121600000	-5.87362990307545	134.513764473883
2122400000	-5.86206791068277	132.847902542098
2123200000	-5.84397348695163	131.179255780346
2124000000	-5.83286426654144	129.515144584129
2124800000	-5.81321379082306	127.850374265096
2125600000	-5.80474112658108	126.196206468844
2126400000	-5.7894167305624	124.529551466865
2127200000	-5.78158599963631	122.840955111176
2128000000	-5.77020623861638	121.195360549462
2128800000	-5.7640579825163	119.491205781298
2129600000	-5.75873628584685	117.834212599974
2130400000	-5.75509492001857	116.185146703739
2131200000	-5.7534478967943	114.55609068469
2132000000	-5.75073347066303	112.936344039364
2132800000	-5.7489524108276	111.32454915135
2133600000	-5.74764226451403	109.716454832939
2134400000	-5.74251753110244	108.125147672146
2135200000	-5.74602440226282	106.559463964349
2136000000	-5.73478373341821	104.990565119152
2136800000	-5.73590866559078	103.39889642255
2137600000	-5.73602825562337	101.798486778149
2138400000	-5.75120627070112	100.384291178825
2139200000	-5.74085471245369	98.7955381875392
2140000000	-5.73255970162778	97.2323385516629
2140800000	-5.72252046735528	95.7116750030639
2141600000	-5.73178656170694	94.2064291306796
2142400000	-5.73656107383867	92.682482183562
2143200000	-5.73246737778088	91.2038278100494
2144000000	-5.73812582004801	89.6946479367887
2144800000	-5.73727732236307	88.2357542011142
2145600000	-5.75741905640811	86.8151302350569
2146400000	-5.76350057935817	85.3762017248658
2147200000	-5.76379026447663	84.0713443215932
2148000000	-5.76972015225052	82.6459845681464
2148800000	-5.77711082619617	81.2370683411756
2149600000	-5.78226688559281	79.8329696827699
2150400000	-5.7814920233128	78.4591030547149
2151200000	-5.78699751962206	77.1869155362916
2152000000	-5.79304666724546	75.8152891714463
2152800000	-5.79986226250594	74.5009431526552
2153600000	-5.79416052905264	73.172847964585
2154400000	-5.80633584776529	71.9707344004083
2155200000	-5.79694150504612	70.6756922392022
2156000000	-5.8032875134849	69.3655756155084
2156800000	-5.80207641447123	68.1103020350321
2157600000	-5.79858751116358	66.8104753705461
2158400000	-5.78397006752551	65.5561898277644
2159200000	-5.78548996268841	64.2771864651638
2160000000	-5.78745166964992	63.0312295510649
2160800000	-5.77769035323822	61.7006398944966
2161600000	-5.76380273355551	60.5539235841349
2162400000	-5.75950096786574	59.1950556049211
2163200000	-5.75542347828589	57.8049944164261
2164000000	-5.75105555467819	56.5300854557108
2164800000	-5.75177432221548	55.150374893575
2165600000	-5.76266682905949	53.9398972000583
2166400000	-5.75864541361586	52.6074271956223
2167200000	-5.76963703023027	51.327381155502
2168000000	-5.78272212659434	50.0041126114135
2168800000	-5.78523639612564	48.8403136357264
2169600000	-5.80703726201919	47.5677253641872
2170400000	-5.81458463085053	46.3554007271467
2171200000	-5.82028271887833	45.1363361226441
2172000000	-5.83027194494072	43.9443447863619
2172800000	-5.8520539467206	42.8242177768292
2173600000	-5.87020846313533	41.5485935379362
2174400000	-5.87016150459789	40.3963159099647
2175200000	-5.88798668856779	39.2162621477234
2176000000	-5.89762511593561	38.1332171978912
2176800000	-5.91851088268097	37.0374810191278
2177600000	-5.93460024233145	35.9220671034328
2178400000	-5.96113211844148	34.8456715056855
2179200000	-5.97131940843894	33.7552505421391
2180000000	-5.99024156278958	32.7387013692614
2180800000	-6.00065590075987	31.6833763519929
2181600000	-6.01233793804878	30.7264194733414
2182400000	-6.02450336695875	29.6718684539393
2183200000	-6.03718467834898	28.7081438169692
2184000000	-6.04366606123434	27.7387786542179
2184800000	-6.05568491344534	26.7899730301432
2185600000	-6.04279305042732	25.8189593097319
2186400000	-6.04501130658819	24.8964219297607
2187200000	-6.03469077957784	23.939663554498
2188000000	-6.03218703283377	22.9694580683577
2188800000	-6.02432039116499	22.0208033391921
2189600000	-6.01062325155451	21.0858155319737
2190400000	-5.99071738770063	20.1066153033523
2191200000	-5.98197950986573	19.0810179819882
2192000000	-5.94713435092391	18.0057599617934
2192800000	-5.94149963153922	17.0363143692176
2193600000	-5.92866883937324	16.001040370554
2194400000	-5.90984249372584	14.8968792702469
2195200000	-5.90252646823248	13.8844905801541
2196000000	-5.87978578414662	12.8197853403761
2196800000	-5.85968508033936	11.7399314728774
2197600000	-5.85820380762403	10.6002346558642
2198400000	-5.84305801774298	9.44567741581378
2199200000	-5.83714811329447	8.28972848802364
2200000000	-5.83016974984924	7.08504177027551
2200800000	-5.82886416713494	5.89335696242982
2201600000	-5.8266001805147	4.72941168030841
2202400000	-5.83602602058385	3.47392767197164
2203200000	-5.845399502724	2.26440724755112
2204000000	-5.85858861833668	1.03817538314344
2204800000	-5.87874799046209	-0.16982829457194
2205600000	-5.90196944603365	-1.4457305705808
2206400000	-5.92344874844697	-2.67707400094192
2207200000	-5.95573386386122	-3.85391010079953
2208000000	-5.98664325296768	-5.12605259153632
2208800000	-6.01794289301356	-6.30905264787738
2209600000	-6.06378027078223	-7.51701980419397
2210400000	-6.10660715944825	-8.72631260610331
2211200000	-6.1533274657194	-9.86857983277945
2212000000	-6.21086656141895	-11.0527704843577
2212800000	-6.26766729231661	-12.1877433442471
2213600000	-6.32208850323934	-13.2862517022001
2214400000	-6.38567801548533	-14.3964285998987
2215200000	-6.43782657064356	-15.488895911462
2216000000	-6.50060002682635	-16.5313164359935
2216800000	-6.55967465177036	-17.6062398204423
2217600000	-6.62554960227798	-18.664539772447
2218400000	-6.68697243947917	-19.6969579243921
2219200000	-6.75222206339005	-20.7049822018594
2220000000	-6.81717290168567	-21.7868171818244
2220800000	-6.88201788759753	-22.8047428269833
2221600000	-6.94815965176128	-23.7955563090359
2222400000	-7.02247980143171	-24.8062057570352
2223200000	-7.0934466701853	-25.8048463351073
2224000000	-7.17451258894732	-26.7902982924282
2224800000	-7.25145376227538	-27.7623019747938
2225600000	-7.3355938038293	-28.7114306694723
2226400000	-7.42053797055719	-29.5503823170197
2227200000	-7.50101322184246	-30.4801318799116
2228000000	-7.57863799720225	-31.3454108565958
2228800000	-7.65646746403432	-32.0901263636345
2229600000	-7.73645763323253	-32.9552575524627
2230400000	-7.8039192439553	-33.7210962407116
2231200000	-7.8695441809045	-34.397120700008
2232000000	-7.92597659351403	-35.1773819692587
2232800000	-7.97764318372912	-35.9701270458612
2233600000	-8.03904789849748	-36.7107288658079
2234400000	-8.09283982430016	-37.5233586486131
2235200000	-8.13291501800393	-38.3267164981674
2236000000	-8.17849034095221	-39.1645075539747
2236800000	-8.21563635025476	-39.9550610150789
2237600000	-8.25284200886334	-40.811956190075
2238400000	-8.288627656909	-41.7043784546397
2239200000	-8.31551866986981	-42.620764578809
2240000000	-8.35197146944715	-43.6687672837741
2240800000	-8.37952528996237	-44.548690451782
2241600000	-8.4036501437741	-45.5315018596456
2242400000	-8.441882411825	-46.6560597303819
2243200000	-8.46580318990664	-47.6891805465343
2244000000	-8.48898693943952	-48.8061106103312
2244800000	-8.52460881446819	-49.9733574127254
2245600000	-8.55936289541972	-51.2543676010778
2246400000	-8.59743093712384	-52.4756483746249
2247200000	-8.62904829955682	-53.7651601911233
2248000000	-8.67580520010473	-55.1200343577204
2248800000	-8.73433052032465	-56.4816414152063
2249600000	-8.80841279637375	-57.8587443899442
2250400000	-8.87109555897864	-59.1954972948729
2251200000	-8.94507997713043	-60.5613690329377
2252000000	-9.00898666290049	-61.865750040363
2252800000	-9.09742029202003	-63.2573063542518
2253600000	-9.18358229798501	-64.6743207075407
2254400000	-9.28624082927735	-65.9739108004402
2255200000	-9.36178153212856	-67.3737329063781
2256000000	-9.47725847067169	-68.7522237353419
2256800000	-9.57264850485248	-70.1458816424413
2257600000	-9.68181607503233	-71.4941102210249
2258400000	-9.77709258060085	-72.8740587508789
2259200000	-9.88965944615322	-74.0960384133833
2260000000	-10.0032332538619	-75.3513090797768
2260800000	-10.109833335299	-76.4951453271662
2261600000	-10.2435444446662	-77.6737416936314
2262400000	-10.3305296901945	-78.8371912242649
2263200000	-10.4351572642598	-80.0485888358561
2264000000	-10.535380188859	-81.2023097930529
2264800000	-10.6368450413568	-82.3590417043227
2265600000	-10.7328993169182	-83.5357216273859
2266400000	-10.8219575923659	-84.6521511724163
2267200000	-10.9076391622194	-85.8823642113698
2268000000	-10.9941122952141	-87.1108623115169
2268800000	-11.0701296510759	-88.3698242713718
2269600000	-11.159048236203	-89.6328673642073
2270400000	-11.2339343351204	-90.9599686641935
2271200000	-11.3147134732678	-92.281445940867
2272000000	-11.3966604504252	-93.6306344679129
2272800000	-11.4887219405152	-94.9862740633038
2273600000	-11.5631919948991	-96.4542092744244
2274400000	-11.65392437624	-97.8553561495533
2275200000	-11.7422236560441	-99.2102887801851
2276000000	-11.8384455302788	-100.606189608158
2276800000	-11.9275477325447	-102.02727823443
2277600000	-12.0241846581179	-103.397078588195
2278400000	-12.1174128829915	-104.876620143392
2279200000	-12.215806725342	-106.340214398936
2280000000	-12.3096889331225	-107.890878427517
2280800000	-12.3930759390898	-109.307001241081
2281600000	-12.5057961554435	-110.946617676915
2282400000	-12.6065253820725	-112.505378007937
2283200000	-12.7101859381634	-114.173494850782
2284000000	-12.8336642229241	-115.75075873555
2284800000	-12.9675279016726	-117.45562585948
2285600000	-13.1086713054572	-119.125838875526
2286400000	-13.2673552417315	-120.77820951186
2287200000	-13.4250904871387	-122.364393378472
2288000000	-13.624658548502	-123.979180269104
2288800000	-13.8271918716357	-125.450584153582
2289600000	-14.0004859286952	-126.740853207149
2290400000	-14.1902354285408	-127.980978948163
2291200000	-14.3790416391569	-129.192635789099
2292000000	-14.5526587768678	-130.244855553543
2292800000	-14.7196149189532	-131.37274309284
2293600000	-14.8741192857281	-132.390278651904
2294400000	-15.0228681576143	-133.423801445372
2295200000	-15.176535645677	-134.483323728782
2296000000	-15.303478479582	-135.565476783667
2296800000	-15.4483821989776	-136.717925805816
2297600000	-15.5979871080009	-138.108773182495
2298400000	-15.7768599538457	-139.392632775912
2299200000	-15.9267087447767	-140.373409647328
2300000000	-16.0661360123283	-141.572813025227
2300800000	-16.2280270259462	-142.568679699792
2301600000	-16.3937918081964	-143.685971069412
2302400000	-16.5424617207909	-144.655466146333
2303200000	-16.712220239147	-145.421884582257
2304000000	-16.8752807310144	-146.347513547791
2304800000	-16.99050512081	-147.127367002234
2305600000	-17.125274375351	-148.163374480909
2306400000	-17.2572143904187	-148.821295447589
2307200000	-17.3764327260331	-149.539205446328
2308000000	-17.4379624788167	-150.391855257767
2308800000	-17.5219761150148	-151.35648980723
2309600000	-17.5834085447032	-152.507893323402
2310400000	-17.6296489401222	-153.450534904655
2311200000	-17.6927123217467	-154.728547871611
2312000000	-17.7321451262258	-155.935065183263
2312800000	-17.7750871115595	-157.29594292139
2313600000	-17.8092414379544	-158.806858407615
2314400000	-17.8483409975251	-160.229891325679
2315200000	-17.8903617148952	-162.248841142349
2316000000	-17.9600171610526	-163.992467331013
2316800000	-18.0321343442563	-166.042408220177
2317600000	-18.1046326400361	-168.206860743975
2318400000	-18.1800955599104	-170.179148037903
2319200000	-18.3055001956602	-172.253828759
2320000000	-18.3776583336308	-174.408561800576
2320800000	-18.4996996466179	-176.488547311757
2321600000	-18.6017151076726	-178.669777238935
2322400000	-18.7424390517526	179.143917364174
2323200000	-18.8638321841952	177.165454653566
2324000000	-18.9860160118425	174.865754610621
2324800000	-19.0988558492023	172.563474496509
2325600000	-19.1913336229931	170.34567744858
2326400000	-19.2909426380706	167.904607479118
2327200000	-19.4079930549927	165.455883118699
2328000000	-19.5108984428708	162.985766347996
2328800000	-19.5791099246219	160.503029615054
2329600000	-19.6743478268282	157.808632650567
2330400000	-19.7322677887102	155.059860707692
2331200000	-19.7901186134476	152.03195540418
2332000000	-19.8854443855656	149.126328786228
2332800000	-19.9412497128444	146.144392569538
2333600000	-20.0437382405326	143.087722117402
2334400000	-20.082103886555	139.739740133952
2335200000	-20.1967395452964	136.455811797228
2336000000	-20.257904225387	133.349540091793
2336800000	-20.3752802134536	130.051089141005
2337600000	-20.494820385041	126.661802146285
2338400000	-20.6026124812325	123.335466030045
2339200000	-20.6778177131768	119.916807461481
2340000000	-20.8253996376863	116.673885020868
2340800000	-20.944377210824	113.362012696226
