!Agilent N9923A: A.05.17
!Date: Sunday, 01 January 2006 12:31:34
!Model: N9923A
!Serial: MY50371189
!CHECKSUM:2117295556
!Correction: S11(ON U)
!S1P File: Measurement: S11:
# Hz S DB R 50
2000000000	-2.18746325259323	0.33484931954802
2000800000	-2.19921691444969	-0.771856143863211
2001600000	-2.22159424271492	-1.98212744049468
2002400000	-2.23340673352371	-3.03858456205192
2003200000	-2.23985950871245	-4.19820206901617
2004000000	-2.26128280486001	-5.33260564305685
2004800000	-2.26954407122127	-6.46750538376798
2005600000	-2.29496803937748	-7.55973390942202
2006400000	-2.29920509415433	-8.71595394386826
2007200000	-2.32515460049663	-9.89823072106438
2008000000	-2.33890202952292	-11.0471867209396
2008800000	-2.35309750859003	-12.1481867993781
2009600000	-2.36594991263715	-13.3287641289346
2010400000	-2.37891173665919	-14.4749536033468
2011200000	-2.39614293691364	-15.6332884553805
2012000000	-2.40932295414811	-16.7764251693835
2012800000	-2.42661823086316	-17.9656336541507
2013600000	-2.44483408045896	-19.1698509773302
2014400000	-2.45712823867205	-20.2827261251293
2015200000	-2.46647649690637	-21.4587771581371
2016000000	-2.4724073020788	-22.6726569324699
2016800000	-2.48972636864976	-23.8545492376628
2017600000	-2.50500205271743	-25.0519873653313
2018400000	-2.51742859045314	-26.2651068989858
2019200000	-2.52840451334035	-27.4913174977406
2020000000	-2.54027848658709	-28.7256022249488
2020800000	-2.55385929602113	-29.9720725900881
2021600000	-2.56492322956471	-31.1902646734339
2022400000	-2.57916385662533	-32.4386159652907
2023200000	-2.59495329021023	-33.7171779702323
2024000000	-2.61226452809238	-34.9753611937596
2024800000	-2.61986346779174	-36.2386382777413
2025600000	-2.63624438734897	-37.4987989905071
2026400000	-2.6551760463859	-38.7777964513439
2027200000	-2.66895038270174	-40.0686029954693
2028000000	-2.68691030581865	-41.3293834446569
2028800000	-2.70011533698148	-42.6197525318867
2029600000	-2.71653571135451	-43.8943470400035
2030400000	-2.73278177780747	-45.192349463372
2031200000	-2.74964564438418	-46.4838846525738
2032000000	-2.76680968592013	-47.764470025323
2032800000	-2.78095397093522	-49.0437121475284
2033600000	-2.796855189658	-50.3326760611663
2034400000	-2.81264285413705	-51.6479582168764
2035200000	-2.82814943641846	-52.9326159460329
2036000000	-2.84463490232648	-54.2819888651437
2036800000	-2.85643911434971	-55.5760972238222
2037600000	-2.87398340351083	-56.8967372161723
2038400000	-2.88522371542189	-58.2120610066084
2039200000	-2.90111241755256	-59.5367400942437
2040000000	-2.91693791179603	-60.8849129220462
2040800000	-2.92886691057656	-62.2130567838926
2041600000	-2.93883273206557	-63.5884047294188
2042400000	-2.96213901677376	-64.8839676760472
2043200000	-2.97453524626593	-66.2347756982468
2044000000	-2.98671793705573	-67.5960617829442
2044800000	-2.99519394346709	-68.9724873770938
2045600000	-3.01133755303612	-70.3267115449446
2046400000	-3.02276075571223	-71.7477501928217
2047200000	-3.03867168756578	-73.1024620213704
2048000000	-3.04999749886498	-74.4781659803311
2048800000	-3.06493916640422	-75.8886902994241
2049600000	-3.07943741913789	-77.3135978627398
2050400000	-3.09512318907687	-78.7351358232133
2051200000	-3.10582478463729	-80.1647156836621
2052000000	-3.12166324696704	-81.6107158246399
2052800000	-3.14100102312823	-83.0470145729706
2053600000	-3.15392257117066	-84.4765515100057
2054400000	-3.1768876201245	-85.9294013153128
2055200000	-3.19151486750089	-87.4050801308969
2056000000	-3.21645125973106	-88.8657891813838
2056800000	-3.23529813019483	-90.3308795465407
2057600000	-3.25220602213251	-91.7901669338406
2058400000	-3.27796435453347	-93.3002516569783
2059200000	-3.29566330646985	-94.7819423722631
2060000000	-3.31672328395404	-96.2869904210829
2060800000	-3.33942024605322	-97.7783582714011
2061600000	-3.36154821643893	-99.3478984119617
2062400000	-3.38787380097291	-100.821317028879
2063200000	-3.41322911784166	-102.324190048109
2064000000	-3.43884893126693	-103.833341116268
2064800000	-3.4623010355621	-105.342074039464
2065600000	-3.49254695085385	-106.853638113287
2066400000	-3.51349672424299	-108.405305416565
2067200000	-3.54436349489856	-109.98779930453
2068000000	-3.57105773504842	-111.548021477055
2068800000	-3.5993078527366	-113.100506561221
2069600000	-3.62998167835911	-114.683131396985
2070400000	-3.6632962938201	-116.247705066481
2071200000	-3.6895572983324	-117.836639857093
2072000000	-3.72651473187745	-119.393755102209
2072800000	-3.74902660121959	-121.025606601883
2073600000	-3.78540406654335	-122.672783107363
2074400000	-3.81752576796996	-124.200055463859
2075200000	-3.85327911268007	-125.893658227358
2076000000	-3.88695847696104	-127.511480546892
2076800000	-3.91862111919335	-129.095960175497
2077600000	-3.95556054097025	-130.738698386267
2078400000	-3.99811059304404	-132.494491907891
2079200000	-4.02201738994646	-134.069475047016
2080000000	-4.05596330285484	-135.766478439616
2080800000	-4.09525713948975	-137.409771957873
2081600000	-4.13151431780046	-139.055447948306
2082400000	-4.17466430930518	-140.835044672718
2083200000	-4.21294521889763	-142.504869351864
2084000000	-4.24473206412363	-144.255605615192
2084800000	-4.29295788505783	-145.963365381813
2085600000	-4.33821472850327	-147.694483301386
2086400000	-4.37541966075566	-149.418003910129
2087200000	-4.40885267469304	-151.160383251544
2088000000	-4.45363699519826	-152.931839134957
2088800000	-4.50165644860227	-154.731544892718
2089600000	-4.53774834207625	-156.474757256777
2090400000	-4.58525145560838	-158.168675374197
2091200000	-4.6295862020227	-159.870885095751
2092000000	-4.66726134707929	-161.625075638291
2092800000	-4.70344252802131	-163.425212650343
2093600000	-4.74580604523713	-165.100523076727
2094400000	-4.77714438456819	-166.825917100291
2095200000	-4.81148227740338	-168.608520517828
2096000000	-4.84968833744984	-170.349891516403
2096800000	-4.88762364238488	-172.092780111362
2097600000	-4.91462981024614	-173.786391928103
2098400000	-4.94827286270225	-175.557891643383
2099200000	-4.97446050162935	-177.305000866771
2100000000	-4.99574977779419	-179.075969485402
2100800000	-5.02616053796077	179.14597331016
2101600000	-5.05268688747638	177.421071888941
2102400000	-5.07374240628566	175.637112647369
2103200000	-5.08808317669163	173.858164857641
2104000000	-5.10668926887169	172.104473453661
2104800000	-5.12291395768485	170.326946136916
2105600000	-5.13181822095873	168.510133642531
2106400000	-5.15140507752882	166.745347740052
2107200000	-5.1619760876735	164.937459086583
2108000000	-5.17636523124324	163.148006436534
2108800000	-5.18956768137316	161.364059110876
2109600000	-5.19706512923224	159.511228639815
2110400000	-5.21077591699437	157.763058124102
2111200000	-5.21688221527708	155.950646274508
2112000000	-5.2389339584589	154.211862922471
2112800000	-5.24869788486705	152.396663368323
2113600000	-5.25375529380524	150.617277328152
2114400000	-5.26596914569053	148.776329160898
2115200000	-5.27401909108283	147.000202652841
2116000000	-5.28241998625869	145.184787184105
2116800000	-5.28730260879546	143.368094583215
2117600000	-5.29917820100005	141.598279147348
2118400000	-5.31221512237217	139.809212487725
2119200000	-5.32037333784264	138.008771937469
2120000000	-5.32695259480599	136.254179179355
2120800000	-5.34285077603556	134.502173635317
2121600000	-5.34779075916678	132.790754462286
2122400000	-5.36723064313033	131.028944253432
2123200000	-5.38147254559671	129.343113589644
2124000000	-5.39534620817686	127.653621135108
2124800000	-5.40718213857693	125.993868469638
2125600000	-5.42002153227604	124.364894189455
2126400000	-5.42938982937854	122.748402262864
2127200000	-5.43776581984603	121.15643937247
2128000000	-5.44288134126933	119.557620889998
2128800000	-5.44873029968662	117.969980055308
2129600000	-5.45184734699028	116.411378401023
2130400000	-5.45044287891666	114.879269595582
2131200000	-5.4512942058951	113.315757972476
2132000000	-5.44797526906829	111.78838191696
2132800000	-5.44328234089338	110.249406547791
2133600000	-5.44005534486788	108.699770827817
2134400000	-5.43343818482872	107.178087522005
2135200000	-5.43214632438926	105.632313790958
2136000000	-5.42480298337867	104.06510518773
2136800000	-5.41931328077056	102.534374661688
2137600000	-5.41646578423279	101.022642043365
2138400000	-5.41812976252202	99.5735854953158
2139200000	-5.41291678542912	98.0754783207015
2140000000	-5.40973630205411	96.5910594319837
2140800000	-5.40514311826521	95.1798299180623
2141600000	-5.39574580425369	93.77164661168
2142400000	-5.38750975160793	92.3039738314183
2143200000	-5.38310714174762	90.8995143090845
2144000000	-5.35810561829602	89.5304320975531
2144800000	-5.34738699429859	88.1106085094214
2145600000	-5.33283583063993	86.7092751759432
2146400000	-5.31133295740495	85.2406665374455
2147200000	-5.29049918019533	83.8259127314638
2148000000	-5.27506261129222	82.3466798549117
2148800000	-5.26257320072076	80.9683643738886
2149600000	-5.25263870159565	79.4202655989038
2150400000	-5.24071320737066	77.9859055168294
2151200000	-5.22999213299036	76.5319549138509
2152000000	-5.22603169180925	75.0800473004624
2152800000	-5.23298026071791	73.6575817508582
2153600000	-5.21992166304199	72.1656480678176
2154400000	-5.20695152467174	70.7540145478178
2155200000	-5.20545967822788	69.3390474753619
2156000000	-5.21323187880903	67.9522812462539
2156800000	-5.21380053739329	66.5384570802826
2157600000	-5.21008364736983	65.0865827260427
2158400000	-5.21006204525493	63.6490678699914
2159200000	-5.2168654446592	62.262037577191
2160000000	-5.20841764694775	60.9392615857684
2160800000	-5.22801917350769	59.5073276232776
2161600000	-5.23070699674401	58.1245315094756
2162400000	-5.24189553148646	56.8242412135242
2163200000	-5.24479323000837	55.4305087438963
2164000000	-5.2539764999266	54.1284268453992
2164800000	-5.26839942618279	52.7438309366224
2165600000	-5.27262926096948	51.4557210513523
2166400000	-5.29239476611881	50.1643416779722
2167200000	-5.30274326180026	48.8302072124152
2168000000	-5.31162922462786	47.5464747291239
2168800000	-5.32171635710805	46.3807356328969
2169600000	-5.33645205731046	45.0590680226534
2170400000	-5.34745702698764	43.8614084913548
2171200000	-5.3582414070784	42.617500554479
2172000000	-5.36032287902508	41.3918631364371
2172800000	-5.38368455725187	40.230121371701
2173600000	-5.39614532378881	38.9465134789515
2174400000	-5.3954247060235	37.8073527153363
2175200000	-5.40497892330549	36.6119822599306
2176000000	-5.42038302886579	35.4735886187466
2176800000	-5.42827104909335	34.3180738540728
2177600000	-5.43438459339281	33.1891701181599
2178400000	-5.44576920648944	32.0011068930618
2179200000	-5.44472198414568	30.868909501119
2180000000	-5.44982052971447	29.747968962728
2180800000	-5.44993885271471	28.5869554543525
2181600000	-5.45763654388845	27.4713445560015
2182400000	-5.4606454856422	26.318072964723
2183200000	-5.46839662415379	25.2013964194203
2184000000	-5.46845461301293	24.0534764713946
2184800000	-5.48024471374096	22.9521929508371
2185600000	-5.46983726891655	21.8300060960586
2186400000	-5.47734904082574	20.7259148691484
2187200000	-5.47461805060035	19.6244546094273
2188000000	-5.47717630269575	18.537178071874
2188800000	-5.47610876781002	17.4479284985827
2189600000	-5.46948943233685	16.3503612598067
2190400000	-5.46818967922026	15.2578143094337
2191200000	-5.47152484381385	14.1387645407364
2192000000	-5.45512097929968	12.983872267727
2192800000	-5.45909438632309	11.9150304834716
2193600000	-5.45509941913977	10.7514425618301
2194400000	-5.4510322839986	9.58647898761992
2195200000	-5.45304704118602	8.47387436924533
2196000000	-5.45633338517571	7.28705119192618
2196800000	-5.45535585630916	6.14027708989419
2197600000	-5.46107343765911	4.9715836011972
2198400000	-5.47117175509272	3.77120155880856
2199200000	-5.47940497499713	2.59884700041232
2200000000	-5.4919156996063	1.40090345037357
2200800000	-5.50760479835592	0.219504395830928
2201600000	-5.52309011020692	-0.953558428800825
2202400000	-5.55248787456603	-2.13751860505958
2203200000	-5.57564268771752	-3.29123728350693
2204000000	-5.59800610061377	-4.44528014705419
2204800000	-5.63028756100054	-5.58629887135412
2205600000	-5.66467534016488	-6.74744843921001
2206400000	-5.69272783037381	-7.83637213074375
2207200000	-5.7300320738668	-8.91189918676818
2208000000	-5.76219783753452	-10.0642845987762
2208800000	-5.79259203193357	-11.1197856025623
2209600000	-5.83122371034073	-12.1828175795717
2210400000	-5.8602544570261	-13.2701865190462
2211200000	-5.89690601076055	-14.3167448981778
2212000000	-5.93519116406474	-15.3876570276993
2212800000	-5.97031667525728	-16.4397955801726
2213600000	-6.00156312383371	-17.4588968652497
2214400000	-6.04668919464605	-18.5137531557586
2215200000	-6.07554552051117	-19.5494374855508
2216000000	-6.11767052613092	-20.5668794177323
2216800000	-6.15177186991075	-21.631666082477
2217600000	-6.1936202693817	-22.648591143335
2218400000	-6.22728661258038	-23.6600878689169
2219200000	-6.26744148601719	-24.6615141892197
2220000000	-6.30812756038934	-25.718521912634
2220800000	-6.34086130409258	-26.7407520786735
2221600000	-6.37201945858427	-27.7523428395084
2222400000	-6.40958676118703	-28.7813157023749
2223200000	-6.43696123831198	-29.8291759579009
2224000000	-6.47409524695893	-30.9385671129602
2224800000	-6.50261373868747	-32.0073719397632
2225600000	-6.53881276071803	-33.1381562214437
2226400000	-6.57331906014675	-34.2121992583272
2227200000	-6.61143515795814	-35.4344938877115
2228000000	-6.64881251086132	-36.5865881504449
2228800000	-6.68468672529041	-37.7634651898589
2229600000	-6.73763415900309	-38.9703395205897
2230400000	-6.78001178332989	-40.2257519001402
2231200000	-6.83951130061795	-41.4404859894314
2232000000	-6.8922081407283	-42.6921310853163
2232800000	-6.94441485898468	-43.9262352203129
2233600000	-7.01611629452184	-45.1343779662231
2234400000	-7.08071602941122	-46.4035627865391
2235200000	-7.15251185200082	-47.6702360960478
2236000000	-7.21849343435813	-48.8652544263286
2236800000	-7.29374933290259	-50.0869111818433
2237600000	-7.37206272609215	-51.3176647065779
2238400000	-7.45029100336984	-52.6225057415389
2239200000	-7.52132260679133	-53.8377810580672
2240000000	-7.60412859223607	-55.0853255315551
2240800000	-7.69298090610675	-56.2547706793652
2241600000	-7.76725749449242	-57.6125574137792
2242400000	-7.85461844130037	-58.7748283770931
2243200000	-7.94209026945858	-59.9897371747442
2244000000	-8.02860574324953	-61.2497075209911
2244800000	-8.11966005338751	-62.484725108814
2245600000	-8.21171977254336	-63.7178848402273
2246400000	-8.29672636277232	-65.0386981026629
2247200000	-8.38384794354547	-66.315838461006
2248000000	-8.47541605037316	-67.5597327276274
2248800000	-8.56980908304337	-68.870750235584
2249600000	-8.66848166433705	-70.1734831695142
2250400000	-8.76283593949601	-71.4565816628772
2251200000	-8.85409238788697	-72.7545441397668
2252000000	-8.95450074949087	-74.0463734854415
2252800000	-9.04874969778723	-75.4368988012177
2253600000	-9.14706408303574	-76.7647392225705
2254400000	-9.26512035649657	-78.1457790946494
2255200000	-9.35273636039948	-79.5329099469946
2256000000	-9.46089087468432	-80.9240772591777
2256800000	-9.57359629766931	-82.3166038323861
2257600000	-9.67597048989534	-83.7504131989777
2258400000	-9.79497855029552	-85.1440809674273
2259200000	-9.90130719630711	-86.6407211682145
2260000000	-10.0199343761274	-88.0306780290017
2260800000	-10.1364041478018	-89.3756433601822
2261600000	-10.2748549876901	-90.9011806553989
2262400000	-10.3935272393891	-92.3668803695719
2263200000	-10.5182970222478	-93.835002836645
2264000000	-10.6566898571052	-95.2613755210784
2264800000	-10.7907607941543	-96.667842074199
2265600000	-10.9187307129727	-98.0892072622468
2266400000	-11.0586152959839	-99.4506192801089
2267200000	-11.2041137398461	-100.793264072943
2268000000	-11.3475430282327	-102.132204455746
2268800000	-11.4717946652714	-103.500342872391
2269600000	-11.6110221412482	-104.78722494855
2270400000	-11.7311243148967	-106.008800971663
2271200000	-11.8550759134752	-107.303948443164
2272000000	-11.9412014716213	-108.078748012215
2272800000	-12.0512119285732	-109.337174399875
2273600000	-12.1425703270153	-110.675453507486
2274400000	-12.2320249741227	-111.927132794672
2275200000	-12.317050223078	-113.277041774879
2276000000	-12.3987195718912	-114.710048699262
2276800000	-12.4570858395904	-116.149226067534
2277600000	-12.5277694089771	-117.630708284707
2278400000	-12.5926385842642	-119.310540048893
2279200000	-12.6684174325178	-120.998145453511
2280000000	-12.7347441413061	-122.868334092148
2280800000	-12.8069738728679	-124.653218572084
2281600000	-12.8971806786552	-126.627534609918
2282400000	-12.9905335271472	-128.634581709366
2283200000	-13.0926592138773	-130.654601877215
2284000000	-13.2141275940479	-132.660064772751
2284800000	-13.3328262499849	-134.835996945532
2285600000	-13.4665766535201	-136.968854155587
2286400000	-13.6112863221672	-139.162669570443
2287200000	-13.767217534671	-141.381828965954
2288000000	-13.9256585732106	-143.506069605335
2288800000	-14.1116918760144	-145.7441261327
2289600000	-14.2815606324881	-147.914068483501
2290400000	-14.4755277670334	-150.070312948637
2291200000	-14.6714332518714	-152.301923004534
2292000000	-14.8916460460668	-154.462479844788
2292800000	-15.1128879579655	-156.582373450165
2293600000	-15.3439358173011	-158.696865218502
2294400000	-15.5802535099288	-160.833094164546
2295200000	-15.8366868432458	-162.868525169405
2296000000	-16.0977059675675	-164.886821172685
2296800000	-16.3636845355354	-166.819136337827
2297600000	-16.6192279760251	-168.838156284418
2298400000	-16.9003835179829	-170.597189841219
2299200000	-17.165461099168	-172.397907999662
2300000000	-17.4364705789648	-174.109048247604
2300800000	-17.6874413404279	-175.852518551086
2301600000	-17.9323463875554	-177.662917021376
2302400000	-18.1777122315907	-179.401846229695
2303200000	-18.4422038422959	178.948711570797
2304000000	-18.6961281113306	177.245985566082
2304800000	-18.9060223978993	175.452099871174
2305600000	-19.1389780145249	173.658198183329
2306400000	-19.3876410840846	171.990147614975
2307200000	-19.6061083868027	170.125924148369
2308000000	-19.8321753349421	168.291216300419
2308800000	-20.0482837011383	166.354947368846
2309600000	-20.2530240781306	164.312753274639
2310400000	-20.4732271519174	162.324010029336
2311200000	-20.6677336964411	160.040975254506
2312000000	-20.8840873439378	157.920366994532
2312800000	-21.1027860881324	155.707089765004
2313600000	-21.2931989741364	153.510461380506
2314400000	-21.5099121970354	151.554563771416
2315200000	-21.6614267784574	149.129040235149
2316000000	-21.8197905929444	146.644387742445
2316800000	-21.9361834215512	144.427864113153
2317600000	-22.0394433944969	141.540175237716
2318400000	-22.1701818470186	138.78458866195
2319200000	-22.2721854270351	135.952163652976
2320000000	-22.3998416700293	133.012235606166
2320800000	-22.4553770143956	129.960077671677
2321600000	-22.5592177915941	126.982140531702
2322400000	-22.6061222701973	123.941570857886
2323200000	-22.6512673544739	120.814377836686
2324000000	-22.6414090233903	117.580998303728
2324800000	-22.6574135889519	114.417575107001
2325600000	-22.6354307244353	111.153452320799
2326400000	-22.6354847147478	107.81738906018
2327200000	-22.6306910803924	104.320056392589
2328000000	-22.5741303392393	101.438642116638
2328800000	-22.4979940030733	98.5007928063571
2329600000	-22.3773016102422	95.2806258327185
2330400000	-22.2554603497971	92.2588683377343
2331200000	-22.1127900231654	89.2067376729655
2332000000	-21.9815940745015	86.0945311513603
2332800000	-21.8874963495969	83.2610881238944
2333600000	-21.702635428403	80.2114957792875
2334400000	-21.5765834244084	77.5279518231147
2335200000	-21.4311611417124	74.6110490066322
2336000000	-21.375703562313	72.1791975176801
2336800000	-21.191265749357	69.3708260469605
2337600000	-21.0261166878015	66.8379004978666
2338400000	-20.8445730195879	64.5007387561821
2339200000	-20.6523066656494	62.1656304801752
2340000000	-20.4738862801688	59.6011747720929
