!Agilent N9923A: A.05.17
!Date: Sunday, 01 January 2006 12:13:31
!Model: N9923A
!Serial: MY50371189
!CHECKSUM:0256677246
!Correction: S11(ON U)
!S1P File: Measurement: S11:
# Hz S DB R 50
2000000000	-1.79524793137884	-0.12034780937256
2000800000	-1.80086521868968	-1.24773548641962
2001600000	-1.80262319136671	-2.42298655635825
2002400000	-1.80626647710676	-3.52293025221298
2003200000	-1.80136825153758	-4.68668401751038
2004000000	-1.80384086997828	-5.82681055869187
2004800000	-1.81056790309521	-6.94577609502884
2005600000	-1.81209460742025	-8.14873069096888
2006400000	-1.81471848796544	-9.25024582145861
2007200000	-1.81975249852529	-10.4570959954254
2008000000	-1.8235936227613	-11.6130653764528
2008800000	-1.82859481473764	-12.7080490601087
2009600000	-1.83844611407309	-13.8831442391671
2010400000	-1.83932007811755	-15.0319897310131
2011200000	-1.85147076031892	-16.2353866338728
2012000000	-1.85641875862292	-17.374813669104
2012800000	-1.86549282774652	-18.5293417600707
2013600000	-1.8729695686515	-19.7373128301252
2014400000	-1.88310166825545	-20.8453244404819
2015200000	-1.88774671381898	-22.0461466980747
2016000000	-1.8968641717445	-23.2072221593832
2016800000	-1.90964878606637	-24.3846963540258
2017600000	-1.92002902192046	-25.56590007028
2018400000	-1.92718942117065	-26.7211077059801
2019200000	-1.93979767099521	-27.9012004404122
2020000000	-1.95134418794362	-29.1074602472837
2020800000	-1.9624386921267	-30.2942058800142
2021600000	-1.9730519213597	-31.4719783245038
2022400000	-1.98372678785906	-32.6710400292226
2023200000	-1.99852472845971	-33.8581253460044
2024000000	-2.00962508404469	-35.0611820284199
2024800000	-2.01932545733069	-36.2761500978235
2025600000	-2.03190206777949	-37.4721289905226
2026400000	-2.04589177765075	-38.6898050894873
2027200000	-2.0577401162843	-39.9094960996726
2028000000	-2.07157337712756	-41.1197701587886
2028800000	-2.08521786005914	-42.340237460885
2029600000	-2.09680776164476	-43.5749545234827
2030400000	-2.11239289463867	-44.7998724652823
2031200000	-2.12663266188623	-46.0198180749442
2032000000	-2.14553154425519	-47.2595511161487
2032800000	-2.15968566812339	-48.5046583123464
2033600000	-2.17118906876321	-49.753372612309
2034400000	-2.18948842511893	-50.9806394249411
2035200000	-2.20302301661108	-52.2436635347239
2036000000	-2.22158122352822	-53.5063048255047
2036800000	-2.23736547449702	-54.7525447695684
2037600000	-2.25433978866525	-56.0313128260981
2038400000	-2.26838753630497	-57.2638097836719
2039200000	-2.28579712885329	-58.5604711396518
2040000000	-2.30270187466064	-59.8615944198606
2040800000	-2.32198019168619	-61.1270424095281
2041600000	-2.33175995830687	-62.4651007200526
2042400000	-2.36077564812182	-63.7312369966288
2043200000	-2.37247305191985	-65.0285112933161
2044000000	-2.39703775497503	-66.3286823822939
2044800000	-2.4146517905043	-67.6451258050074
2045600000	-2.43180047329703	-68.9551059021029
2046400000	-2.45370323782555	-70.2966825954756
2047200000	-2.47298865943046	-71.6001416992112
2048000000	-2.49006418599422	-72.9311669241271
2048800000	-2.51492417744634	-74.2561274054932
2049600000	-2.53439374461758	-75.6146493675297
2050400000	-2.55433627124616	-76.9729627841713
2051200000	-2.57117698367622	-78.3373289839817
2052000000	-2.59164750984163	-79.7029752371192
2052800000	-2.61649880773511	-81.0707779608467
2053600000	-2.63562253479395	-82.4359580126119
2054400000	-2.65879357384394	-83.8322309775871
2055200000	-2.67875182329142	-85.2303979142599
2056000000	-2.70490315590105	-86.6372234731791
2056800000	-2.72615231772082	-88.0554387210995
2057600000	-2.74752540950846	-89.4491913624737
2058400000	-2.77603375448294	-90.9063612086598
2059200000	-2.79634136084247	-92.3179303874592
2060000000	-2.8217608590903	-93.7584042994164
2060800000	-2.84657253846934	-95.1948915881842
2061600000	-2.87529296924419	-96.6632976028919
2062400000	-2.90051306462701	-98.0921052806492
2063200000	-2.92436441654233	-99.5540286294016
2064000000	-2.9501300421306	-101.038129173991
2064800000	-2.97797497376579	-102.476000543895
2065600000	-3.00475543033538	-103.980949153647
2066400000	-3.03389244298244	-105.42234062531
2067200000	-3.05821848975603	-106.90836726546
2068000000	-3.08077863156974	-108.425086047225
2068800000	-3.11259433662388	-109.916203126489
2069600000	-3.13691699720969	-111.512586100972
2070400000	-3.17164596664762	-112.941936655512
2071200000	-3.19713032291288	-114.478909939506
2072000000	-3.2185661481727	-116.012820125444
2072800000	-3.24891040612775	-117.57256781527
2073600000	-3.26843252742715	-119.117784439475
2074400000	-3.30205157994876	-120.705688829921
2075200000	-3.3286602662439	-122.292358263674
2076000000	-3.35851976764994	-123.86408877056
2076800000	-3.39027967640236	-125.479878319644
2077600000	-3.41217231797867	-127.080988871995
2078400000	-3.45902272095194	-128.721654956989
2079200000	-3.48049661559819	-130.352441622936
2080000000	-3.51416511471046	-131.963846472431
2080800000	-3.53711405153178	-133.576699986455
2081600000	-3.55080423492863	-135.2497005982
2082400000	-3.59148686986214	-136.91805894187
2083200000	-3.63334061338435	-138.606618737828
2084000000	-3.65458690228511	-140.287992700986
2084800000	-3.68991165935976	-141.949524448558
2085600000	-3.71888015444217	-143.634647391574
2086400000	-3.74896594621505	-145.321812283516
2087200000	-3.77388457513943	-147.114938499948
2088000000	-3.79808460171272	-148.807860561933
2088800000	-3.83167884150292	-150.52789908092
2089600000	-3.85852042242028	-152.26815197762
2090400000	-3.88779893094325	-154.008782816038
2091200000	-3.92305436168014	-155.801285817297
2092000000	-3.93760853964025	-157.537170096138
2092800000	-3.96861677103603	-159.315802758245
2093600000	-3.98697813437162	-161.036457495078
2094400000	-4.00850117132426	-162.828717302726
2095200000	-4.04229670919887	-164.627835969727
2096000000	-4.06856221539528	-166.431884508943
2096800000	-4.09494850412203	-168.240562494532
2097600000	-4.1137723341318	-170.030101676342
2098400000	-4.13814601689349	-171.865541870273
2099200000	-4.16504814340043	-173.649087273434
2100000000	-4.18521720610227	-175.494359193039
2100800000	-4.20216254351047	-177.284248792328
2101600000	-4.22345090244772	-179.103492285309
2102400000	-4.24888920464691	179.055176263687
2103200000	-4.26997305361892	177.271926043687
2104000000	-4.28436004943695	175.474178784136
2104800000	-4.30401907513918	173.654333080994
2105600000	-4.31532802321093	171.8211675922
2106400000	-4.3333723468255	170.00922823453
2107200000	-4.34499146683775	168.210727015392
2108000000	-4.35913341488696	166.382873724825
2108800000	-4.373359403372	164.591451621378
2109600000	-4.38054213999066	162.771357846877
2110400000	-4.38858842429994	160.988589729407
2111200000	-4.39348295677566	159.179493206464
2112000000	-4.39819277949915	157.355905643254
2112800000	-4.40084331386649	155.553737946438
2113600000	-4.40136081261658	153.783322589793
2114400000	-4.39858501592046	151.948737882618
2115200000	-4.39591872483564	150.165087924792
2116000000	-4.39429779602552	148.315133920072
2116800000	-4.3888176109007	146.498371658948
2117600000	-4.38704225550445	144.684358714039
2118400000	-4.38144548279742	142.85256429949
2119200000	-4.37396330549345	141.026767021645
2120000000	-4.36797305912948	139.210663134384
2120800000	-4.36225933048392	137.398623720735
2121600000	-4.3497655820347	135.638906545026
2122400000	-4.34357742455232	133.780053098066
2123200000	-4.33567494596958	132.001811249413
2124000000	-4.32643550991743	130.202527632665
2124800000	-4.31412609862246	128.400238730457
2125600000	-4.30628404555612	126.628388251213
2126400000	-4.29176851678053	124.833910782865
2127200000	-4.28082774205314	123.055050352564
2128000000	-4.26539893019786	121.280890294786
2128800000	-4.25063096140233	119.498275674204
2129600000	-4.23567869531339	117.722564457095
2130400000	-4.22181026517416	115.955105566075
2131200000	-4.20746541246603	114.188779734074
2132000000	-4.1930049813677	112.451062573565
2132800000	-4.1777597210449	110.719203211484
2133600000	-4.16293405702083	108.956737620569
2134400000	-4.14736547454666	107.24303794206
2135200000	-4.13509537097526	105.502895864049
2136000000	-4.11624502841336	103.781528492618
2136800000	-4.10435377636533	102.067627827303
2137600000	-4.09010544262694	100.379079653114
2138400000	-4.07609944084751	98.6760931615218
2139200000	-4.06198191943228	96.9936442020933
2140000000	-4.04978595237398	95.3390592607056
2140800000	-4.03530471324186	93.6732206589672
2141600000	-4.01926400819947	92.0660017189739
2142400000	-4.00371891893741	90.4492550779407
2143200000	-3.98433610039781	88.7952770194377
2144000000	-3.96323904328874	87.240272308102
2144800000	-3.94855593897627	85.6217547864515
2145600000	-3.94432739709534	84.0202952466687
2146400000	-3.91349658643625	82.4500067706195
2147200000	-3.89856998776306	80.8525419923185
2148000000	-3.88252284924858	79.2977078966492
2148800000	-3.86571667671692	77.7654970071559
2149600000	-3.85155497247642	76.2074053658391
2150400000	-3.83591392023819	74.6431949918122
2151200000	-3.82140366860195	73.1263715196722
2152000000	-3.80113493114355	71.5762987983087
2152800000	-3.78638234884378	70.0387487801014
2153600000	-3.78185096946582	68.4774493750374
2154400000	-3.76490908745344	67.0897253693164
2155200000	-3.75358011333152	65.5293522773356
2156000000	-3.74464547075045	64.0740936653357
2156800000	-3.73356165789891	62.5692380437038
2157600000	-3.7181691282608	61.1005704692258
2158400000	-3.70472117582129	59.6577923439161
2159200000	-3.69726866390579	58.1332528957551
2160000000	-3.68419055571886	56.7496832444606
2160800000	-3.67080390425036	55.2764290138612
2161600000	-3.66718763665708	53.9528023964801
2162400000	-3.64444653258893	52.4925717939585
2163200000	-3.63974105920256	51.0207383898481
2164000000	-3.61751302850453	49.606632063391
2164800000	-3.60749669606831	48.1385373911533
2165600000	-3.59903384297977	46.7772989565571
2166400000	-3.58897213894079	45.3790957062627
2167200000	-3.58197116891127	43.9583968098248
2168000000	-3.56925735843375	42.4973072103454
2168800000	-3.5593606171057	41.2109388564453
2169600000	-3.56330781515309	39.7886645732812
2170400000	-3.5555349500504	38.4293315567741
2171200000	-3.55051943153236	37.0393349404416
2172000000	-3.54378786260414	35.7362413587387
2172800000	-3.54320769640544	34.4400951457029
2173600000	-3.54645099418576	33.0575405772051
2174400000	-3.54272311230031	31.7532367294651
2175200000	-3.53439047494685	30.4444226582293
2176000000	-3.53393738445116	29.1782875512698
2176800000	-3.52819641113101	27.8975750996383
2177600000	-3.52392588068942	26.6348077112015
2178400000	-3.52567155721739	25.3822587926895
2179200000	-3.51610479127771	24.0986802123516
2180000000	-3.5100559080037	22.8488591066509
2180800000	-3.50276724627135	21.5417936123341
2181600000	-3.49650613221048	20.2777685191962
2182400000	-3.49120001500348	18.9746216616915
2183200000	-3.49101776831916	17.7146859345593
2184000000	-3.48805988275049	16.4306212700523
2184800000	-3.49545261089839	15.1854136847334
2185600000	-3.48053798705617	13.8940809145286
2186400000	-3.48226055217	12.6556132008948
2187200000	-3.48079018121642	11.4069185815209
2188000000	-3.48182917490137	10.1575895262537
2188800000	-3.47872958494442	8.9179467067681
2189600000	-3.47722996300993	7.67605186110609
2190400000	-3.47718938095135	6.43916664855583
2191200000	-3.48167705246125	5.19041344199404
2192000000	-3.47301528840232	3.90198667268345
2192800000	-3.48312316133998	2.70816924112942
2193600000	-3.48511928288146	1.43473058346107
2194400000	-3.48677414308414	0.144843968731856
2195200000	-3.49570048067606	-1.07512335625574
2196000000	-3.50051400752067	-2.33875130972855
2196800000	-3.50913357415565	-3.57483676983681
2197600000	-3.51988033157611	-4.81578639115333
2198400000	-3.52840405192084	-6.11498346774348
2199200000	-3.5411009346458	-7.35012993372492
2200000000	-3.55653574418351	-8.61053743914159
2200800000	-3.56747165549778	-9.85979290793704
2201600000	-3.58495277962266	-11.0755562612813
2202400000	-3.6060474287224	-12.336405149668
2203200000	-3.62111653560251	-13.6038721186503
2204000000	-3.64060150536232	-14.8255815955006
2204800000	-3.66345431323754	-16.0605815980417
2205600000	-3.68349281163982	-17.3267211095981
2206400000	-3.70362787916397	-18.5447038617866
2207200000	-3.73000576490616	-19.7551875244327
2208000000	-3.75419739345387	-21.0153046843533
2208800000	-3.77655410125515	-22.2228424657611
2209600000	-3.80248362194817	-23.446918588652
2210400000	-3.82306524236179	-24.6897268793844
2211200000	-3.84906975133855	-25.8950937516266
2212000000	-3.87666459309843	-27.1557134630045
2212800000	-3.90285874093828	-28.4069178700467
2213600000	-3.92704216527361	-29.6457559431494
2214400000	-3.9612690244323	-30.92029434316
2215200000	-3.98446023585559	-32.1498000979705
2216000000	-4.01904180989198	-33.4131922292267
2216800000	-4.0502858761676	-34.6756494673323
2217600000	-4.08642136621018	-35.9221784024899
2218400000	-4.11671058210329	-37.1903949777566
2219200000	-4.15059547710388	-38.4354145947087
2220000000	-4.18344975948513	-39.7153335686228
2220800000	-4.22007504727969	-40.9793302709416
2221600000	-4.25119829160384	-42.2388655592285
2222400000	-4.29224587138117	-43.5334275032963
2223200000	-4.32629354972366	-44.7899811947977
2224000000	-4.37097521357287	-46.0879814741458
2224800000	-4.40465331400841	-47.3624636943247
2225600000	-4.44571906998967	-48.6757039528351
2226400000	-4.48657348610981	-49.9161645081675
2227200000	-4.52861202359744	-51.2659823211742
2228000000	-4.56845738165039	-52.5914942744854
2228800000	-4.59958234287601	-53.9028612596024
2229600000	-4.65609899018163	-55.2185080720091
2230400000	-4.69461611302822	-56.53775277338
2231200000	-4.73451804509608	-57.8790147444837
2232000000	-4.78031166256677	-59.2071119505638
2232800000	-4.81806151236667	-60.5843889708297
2233600000	-4.87697462384345	-61.8999560768162
2234400000	-4.91030711414998	-63.3164067928462
2235200000	-4.96047254138709	-64.6689546798287
2236000000	-4.99814999200769	-66.0359745667581
2236800000	-5.05339151701139	-67.4705594176867
2237600000	-5.09667154780959	-68.9180730606237
2238400000	-5.14828506863921	-70.3367332035781
2239200000	-5.1945701797371	-71.808816139621
2240000000	-5.24047116198088	-73.2888815213397
2240800000	-5.29379261527869	-74.7712896949889
2241600000	-5.33614187415285	-76.2418254462901
2242400000	-5.40503010685133	-77.7736106162694
2243200000	-5.46171926900634	-79.272076820685
2244000000	-5.52010192477131	-80.739441893027
2244800000	-5.58119126270596	-82.3360772942274
2245600000	-5.65047264750922	-83.8100356689086
2246400000	-5.71597830095491	-85.4370956359166
2247200000	-5.78132397099059	-86.921983580891
2248000000	-5.8456267695121	-88.4640154556249
2248800000	-5.91742282123156	-90.0796414033033
2249600000	-5.98213647296683	-91.6349019350314
2250400000	-6.05115731483466	-93.1385406898172
2251200000	-6.11115665829002	-94.6902616980533
2252000000	-6.17786613960637	-96.2277786212227
2252800000	-6.24686137615935	-97.8593847558269
2253600000	-6.31373503903896	-99.4478139364108
2254400000	-6.38509991164439	-101.027610754766
2255200000	-6.44785682502788	-102.659174549186
2256000000	-6.52483069204148	-104.384118396524
2256800000	-6.58756235806583	-106.031914254299
2257600000	-6.65171288249637	-107.718046609557
2258400000	-6.72919137017709	-109.415014174179
2259200000	-6.78916245474576	-111.156660995863
2260000000	-6.85918257208013	-112.876182081348
2260800000	-6.93831650920505	-114.559343039688
2261600000	-7.01156133806285	-116.409425018427
2262400000	-7.09497030327693	-118.139072129709
2263200000	-7.17095010373032	-119.873286936623
2264000000	-7.24853256544002	-121.663960218395
2264800000	-7.32822445426739	-123.446398291268
2265600000	-7.40911283595398	-125.231877278371
2266400000	-7.48648148020309	-126.976955982271
2267200000	-7.57025937714785	-128.7905366482
2268000000	-7.64903346210543	-130.553829086375
2268800000	-7.72258419457912	-132.387111507536
2269600000	-7.80187396721329	-134.193382868931
2270400000	-7.87380224429277	-136.015040582105
2271200000	-7.95353369630503	-137.897226547928
2272000000	-8.02481987445525	-139.733337143548
2272800000	-8.10671022716256	-141.653330041337
2273600000	-8.17676214927966	-143.54422733547
2274400000	-8.25778494053661	-145.501826087979
2275200000	-8.34066019523127	-147.481532338891
2276000000	-8.42666704583739	-149.403469124828
2276800000	-8.50605384511654	-151.308348537499
2277600000	-8.59511394756163	-153.262573019322
2278400000	-8.67201763789532	-155.229941330783
2279200000	-8.75747655131463	-157.232110325516
2280000000	-8.8402680068137	-159.169411250565
2280800000	-8.92460527944613	-161.091600532451
2281600000	-9.00287693993633	-163.072744252969
2282400000	-9.08155311084932	-165.046379557217
2283200000	-9.15315564537516	-167.0171051657
2284000000	-9.22992262911248	-169.000595343833
2284800000	-9.29796327196003	-171.048843586929
2285600000	-9.37367627390838	-173.077013232003
2286400000	-9.43359554378308	-175.162292714303
2287200000	-9.50265343650419	-177.242498439253
2288000000	-9.56499459253854	-179.342757505231
2288800000	-9.63221091982379	178.481207869868
2289600000	-9.68604140762498	176.469103307496
2290400000	-9.75864048014855	174.299672652486
2291200000	-9.81080955992246	172.154043683888
2292000000	-9.87255192736084	170.051089393428
2292800000	-9.92275493476732	167.860399371808
2293600000	-9.97668251088645	165.738743251757
2294400000	-10.0192670256963	163.473048717021
2295200000	-10.0656198035126	161.280249021816
2296000000	-10.1097500766431	159.111045162197
2296800000	-10.1571270441948	156.8464087685
2297600000	-10.185929615547	154.530080637059
2298400000	-10.230501246905	152.268821188441
2299200000	-10.2694328958908	149.997006137436
2300000000	-10.303126254402	147.675254668989
2300800000	-10.3285664010334	145.463362871971
2301600000	-10.3593883736693	143.284418502587
2302400000	-10.3816874865102	140.889852550064
2303200000	-10.4184702924903	138.626519893361
2304000000	-10.4392124001526	136.194947391944
2304800000	-10.4526507021073	133.917897907647
2305600000	-10.4582094727437	131.590131492732
2306400000	-10.4632187980468	129.35984048885
2307200000	-10.4710671652196	127.095742045831
2308000000	-10.4708733824569	124.770224754234
2308800000	-10.4638730408626	122.484441920682
2309600000	-10.4560500381582	120.200549864618
2310400000	-10.4401729271923	117.873945135802
2311200000	-10.4151613362345	115.56786719228
2312000000	-10.4050662127514	113.236729634423
2312800000	-10.374184421412	110.923833360938
2313600000	-10.3373112874186	108.673939975184
2314400000	-10.32548156673	106.380280122515
2315200000	-10.2944538020088	104.077982042683
2316000000	-10.2608911978801	101.82499488145
2316800000	-10.2202683441005	99.5140669053947
2317600000	-10.2028577980751	97.3052582180453
2318400000	-10.1733106031263	94.9465155561022
2319200000	-10.1415625746706	92.8269345372091
2320000000	-10.1006002463175	90.5931311915879
2320800000	-10.0584959953255	88.4225771002502
2321600000	-10.0398929652048	86.1748388066102
2322400000	-9.99451796426757	84.0361407818537
2323200000	-9.95702992667318	81.9016258972454
2324000000	-9.91735259017184	79.7845148158108
2324800000	-9.87860127132471	77.6985018661055
2325600000	-9.84643835173688	75.6252430360113
2326400000	-9.80333578304664	73.5337178522133
2327200000	-9.76427750009151	71.491623839764
2328000000	-9.72911971967022	69.3843867584338
2328800000	-9.69639235416911	67.4209972256205
2329600000	-9.66211510045527	65.3408762366366
2330400000	-9.63172625701595	63.4358052855178
2331200000	-9.59520621980175	61.5210471342268
2332000000	-9.56955430619476	59.5960732671329
2332800000	-9.54622494383553	57.7222343140109
2333600000	-9.51380855241301	55.851171545455
2334400000	-9.48612191854402	54.0476062208366
2335200000	-9.46127924928964	52.2975696400459
2336000000	-9.44191801020732	50.6378493235026
2336800000	-9.41030935583228	48.8973095219893
2337600000	-9.38297142061189	47.2491246348467
2338400000	-9.34730639498345	45.555072213459
2339200000	-9.30786507027918	43.9707818692445
2340000000	-9.27591472601015	42.2882767244231
2340800000	-9.2398575580322	40.6802071908735
