!Agilent N9923A: A.05.17
!Date: Sunday, 01 January 2006 12:08:31
!Model: N9923A
!Serial: MY50371189
!CHECKSUM:1952336060
!Correction: S11(ON U)
!S1P File: Measurement: S11:
# Hz S DB R 50
2000000000	-2.15548494290408	-1.72856917027965
2000800000	-2.17063796390957	-2.89229354825688
2001600000	-2.16233346151484	-4.01810396789111
2002400000	-2.17899963876089	-5.24755782525404
2003200000	-2.18567884325227	-6.47034596508864
2004000000	-2.1929650773323	-7.64524920632905
2004800000	-2.20729279122313	-8.86726784444161
2005600000	-2.21159357532889	-10.0534720745286
2006400000	-2.21983845783347	-11.2793600434049
2007200000	-2.23702359340382	-12.4986660930485
2008000000	-2.24721351259222	-13.7141853524004
2008800000	-2.2616128675998	-14.9070321934234
2009600000	-2.27182295520549	-16.1380397983055
2010400000	-2.28714388099738	-17.372005909833
2011200000	-2.3045938500566	-18.6061331743471
2012000000	-2.32407615177139	-19.8105143254131
2012800000	-2.3344490152426	-21.0621333175892
2013600000	-2.35622617437113	-22.3156918413254
2014400000	-2.37517555992826	-23.5376853599555
2015200000	-2.39335590862582	-24.7836955358807
2016000000	-2.40737847532823	-26.0147723471441
2016800000	-2.42526066511666	-27.2737235999109
2017600000	-2.44510098251601	-28.5005772520232
2018400000	-2.46201075055964	-29.746021350813
2019200000	-2.48283357963463	-31.0091684979614
2020000000	-2.50035042692288	-32.2757719973813
2020800000	-2.52057645051378	-33.5258595695773
2021600000	-2.53714271704252	-34.7843810357263
2022400000	-2.55593994322922	-36.0584439552109
2023200000	-2.57543584047722	-37.3475664659041
2024000000	-2.59667531573826	-38.6314418177054
2024800000	-2.61401687397762	-39.9398277749957
2025600000	-2.63513793792398	-41.2195652895778
2026400000	-2.66138462931737	-42.5261378737883
2027200000	-2.67768112386375	-43.8573938388681
2028000000	-2.70185338881538	-45.143303100732
2028800000	-2.72688776503436	-46.4679799321218
2029600000	-2.75128925053062	-47.7587443627776
2030400000	-2.7730333283111	-49.0847384744844
2031200000	-2.79883580027807	-50.4028697411388
2032000000	-2.82653710575275	-51.7198730021734
2032800000	-2.85005465643079	-53.0137043543279
2033600000	-2.87028826813514	-54.3693759538663
2034400000	-2.89395916758142	-55.6844352305047
2035200000	-2.91752034905013	-57.0048356641366
2036000000	-2.94126147826296	-58.3793961680233
2036800000	-2.96123131947889	-59.7124012075854
2037600000	-2.98736707213133	-61.0911683468498
2038400000	-3.00587011992952	-62.4513877992393
2039200000	-3.0279533980624	-63.8093241167011
2040000000	-3.05094202624218	-65.2016800744156
2040800000	-3.07677473138855	-66.5943702978881
2041600000	-3.09661924374352	-68.0280725073367
2042400000	-3.12933304838416	-69.3703042054821
2043200000	-3.15055641505131	-70.7970425990713
2044000000	-3.17954325315593	-72.2029554493845
2044800000	-3.20175446469832	-73.6320126050591
2045600000	-3.22884841118188	-75.0001705558405
2046400000	-3.25810355925227	-76.4436695664331
2047200000	-3.2847662055852	-77.8377882191048
2048000000	-3.30853690242642	-79.2379333723185
2048800000	-3.33789400735454	-80.6554627920219
2049600000	-3.36123054154544	-82.0813500581316
2050400000	-3.38748973238839	-83.4954894453632
2051200000	-3.40475926510861	-84.9230403906368
2052000000	-3.42916046055551	-86.3564074415094
2052800000	-3.45297833835226	-87.7856373498955
2053600000	-3.47119485144052	-89.2143197925648
2054400000	-3.49446348581633	-90.6701360966648
2055200000	-3.50992339833053	-92.1477074036624
2056000000	-3.53284575041676	-93.6096972075966
2056800000	-3.55229777324268	-95.1055149890103
2057600000	-3.56628362060846	-96.5798754853974
2058400000	-3.59058374583903	-98.09033732272
2059200000	-3.60777032143531	-99.5995169430179
2060000000	-3.62458903006165	-101.1095680101
2060800000	-3.64496126054174	-102.623912984976
2061600000	-3.66825083390452	-104.164991818391
2062400000	-3.67897600870441	-105.654481065248
2063200000	-3.69485284355719	-107.180510233445
2064000000	-3.70544242048738	-108.699124651386
2064800000	-3.7183643981076	-110.236250579197
2065600000	-3.73041344986558	-111.771069199845
2066400000	-3.73433490855706	-113.355332401441
2067200000	-3.74638987017712	-114.933360225109
2068000000	-3.7518723246202	-116.524649976395
2068800000	-3.76194667316299	-118.155030546695
2069600000	-3.76543668621634	-119.793627310227
2070400000	-3.77136491592699	-121.406845071862
2071200000	-3.77508503204002	-123.054547369519
2072000000	-3.7848914071147	-124.762205121045
2072800000	-3.78937644280581	-126.48946504577
2073600000	-3.79792808173534	-128.207733910365
2074400000	-3.80376854420392	-129.9639193809
2075200000	-3.81606129311617	-131.721385834795
2076000000	-3.82065577061239	-133.485838773756
2076800000	-3.83765772511397	-135.266232098053
2077600000	-3.84187142206743	-137.074332178421
2078400000	-3.86662742232729	-138.876125350926
2079200000	-3.88575782547083	-140.706721868741
2080000000	-3.90106399770585	-142.535556546516
2080800000	-3.92561273314686	-144.364156463071
2081600000	-3.94271406247791	-146.163611499525
2082400000	-3.97567464335395	-147.971973498898
2083200000	-3.99489763614214	-149.737202652985
2084000000	-4.01766107986087	-151.562583223867
2084800000	-4.04267503490154	-153.310477258844
2085600000	-4.06396630334453	-155.122417827824
2086400000	-4.0862561914366	-156.910427272976
2087200000	-4.09724952965099	-158.701975770626
2088000000	-4.10532122106855	-160.502418601137
2088800000	-4.12813845309603	-162.339235229072
2089600000	-4.14224626533846	-164.171205827243
2090400000	-4.15984949819855	-165.961215453466
2091200000	-4.18050461508836	-167.798533875715
2092000000	-4.18786298711037	-169.630047771436
2092800000	-4.20492789553465	-171.463724579597
2093600000	-4.2130018992316	-173.29557712594
2094400000	-4.2326467559421	-175.173102184624
2095200000	-4.24492771647385	-177.033072131025
2096000000	-4.26413965514043	-178.887510826182
2096800000	-4.27877522412174	179.264361065642
2097600000	-4.29009924273989	177.399518816035
2098400000	-4.30541566074309	175.553839287258
2099200000	-4.320430429655	173.711147838991
2100000000	-4.33306992493349	171.870977856578
2100800000	-4.34880197110168	170.008809825907
2101600000	-4.36324853575481	168.203209594862
2102400000	-4.37796887864172	166.326351009832
2103200000	-4.39057353882167	164.517629660906
2104000000	-4.40499249664467	162.712135809922
2104800000	-4.41740390469757	160.889772329655
2105600000	-4.42451269853247	159.032259818481
2106400000	-4.43943477589395	157.242026250155
2107200000	-4.45248995272278	155.427635873377
2108000000	-4.46143939845995	153.592843059035
2108800000	-4.47846084559646	151.78618495635
2109600000	-4.48564181641341	149.93565390072
2110400000	-4.50148498252505	148.144376092038
2111200000	-4.51265222227445	146.34849199876
2112000000	-4.52958100259904	144.545569043766
2112800000	-4.54454994684653	142.725855595952
2113600000	-4.56089904780734	140.969111647727
2114400000	-4.57273950108732	139.138948935826
2115200000	-4.59264671854127	137.395168012206
2116000000	-4.61112612192476	135.622740887693
2116800000	-4.63232087640998	133.858650027531
2117600000	-4.65986451168334	132.135257990245
2118400000	-4.68411365994543	130.419336902644
2119200000	-4.70784097190102	128.714188387936
2120000000	-4.73175440602543	127.042700371183
2120800000	-4.75590497309842	125.421007518554
2121600000	-4.77664118194411	123.823324857609
2122400000	-4.8033132177481	122.18997480504
2123200000	-4.82601831548546	120.626779166137
2124000000	-4.84911905883367	119.079474368709
2124800000	-4.86737513977648	117.583278233106
2125600000	-4.88498125216371	116.077685115218
2126400000	-4.89450268609401	114.586112397526
2127200000	-4.90597540127724	113.116806566946
2128000000	-4.91187211067856	111.649125236911
2128800000	-4.91693669973713	110.166486106899
2129600000	-4.92246123888001	108.693953632368
2130400000	-4.92415590808843	107.243758013755
2131200000	-4.92673690601908	105.783437871281
2132000000	-4.92596789614506	104.345142456322
2132800000	-4.9245876023009	102.894162632155
2133600000	-4.92727764490495	101.433092099462
2134400000	-4.92522144351877	99.9976411436362
2135200000	-4.93033692767017	98.5984592537521
2136000000	-4.9228361274995	97.1585762932803
2136800000	-4.92263329630702	95.7496068423363
2137600000	-4.92103776751747	94.3729968354581
2138400000	-4.91753853854462	92.9780514633675
2139200000	-4.91758068504828	91.590849603183
2140000000	-4.91801202046586	90.2379721935923
2140800000	-4.90864408389807	88.8466026185125
2141600000	-4.90433961500287	87.4811966040568
2142400000	-4.89877727893548	86.1906483107607
2143200000	-4.89057752888029	84.8198595583262
2144000000	-4.88128428269686	83.4970470151423
2144800000	-4.87318137841303	82.1265831024247
2145600000	-4.87195420827357	80.7988846912027
2146400000	-4.86024921090868	79.5009505248024
2147200000	-4.85498651329039	78.1828114851686
2148000000	-4.84816408671803	76.9227309729685
2148800000	-4.84431174863267	75.6379584889272
2149600000	-4.83462746961272	74.3460015480803
2150400000	-4.83611963994208	73.0332496763127
2151200000	-4.82458315592287	71.8037117513641
2152000000	-4.81586969478584	70.5483727897697
2152800000	-4.81341616800361	69.3087895044685
2153600000	-4.78897543881341	68.0122331231537
2154400000	-4.79183582836934	66.8979700351199
2155200000	-4.76590641598054	65.5421479549323
2156000000	-4.76426923607473	64.255585100141
2156800000	-4.75938368354907	63.0530832810678
2157600000	-4.74521526077194	61.7958160718656
2158400000	-4.72214650154413	60.5140514887518
2159200000	-4.71679588455625	59.2274518430805
2160000000	-4.71534289612037	58.0349929778886
2160800000	-4.70235562152141	56.7011484558699
2161600000	-4.6970696298004	55.4642799539717
2162400000	-4.6772633573369	54.2016444977283
2163200000	-4.67540088927937	52.9608485073067
2164000000	-4.6692490987527	51.7147913587043
2164800000	-4.66583805132393	50.4230453311858
2165600000	-4.66534851791687	49.1380329243146
2166400000	-4.65466959332086	47.9459408139611
2167200000	-4.65589581036451	46.6408652616581
2168000000	-4.6508677381269	45.4072637334708
2168800000	-4.6464106972273	44.2463612524096
2169600000	-4.6521412594599	42.9873593213979
2170400000	-4.64589068383701	41.7756992734444
2171200000	-4.64200590944936	40.5479223222146
2172000000	-4.64093024348458	39.318618035217
2172800000	-4.64932631430012	38.1589898530954
2173600000	-4.65221572390145	36.8767208327348
2174400000	-4.647221305439	35.7066179190828
2175200000	-4.64992972631714	34.4513820889685
2176000000	-4.65247992381383	33.2937032308915
2176800000	-4.65809192589991	32.1292924345304
2177600000	-4.65536461685363	30.9465587258103
2178400000	-4.66966193268361	29.7784585238713
2179200000	-4.66500635892943	28.5945860826306
2180000000	-4.66935461704932	27.4074358762542
2180800000	-4.66973082233702	26.1946837402177
2181600000	-4.66850412585841	25.0015222234408
2182400000	-4.67321392343814	23.7668321187559
2183200000	-4.67699223608564	22.5689398671038
2184000000	-4.67927261060091	21.3435158815814
2184800000	-4.69224180435308	20.1180215542326
2185600000	-4.68452936753268	18.8880481872534
2186400000	-4.6968656714182	17.6352972939103
2187200000	-4.70301334400566	16.3905227538873
2188000000	-4.71749508188665	15.120321331322
2188800000	-4.72515925384143	13.8968895217456
2189600000	-4.74181820309671	12.6477447206512
2190400000	-4.76162125254053	11.3940165787481
2191200000	-4.78532269178404	10.1198875382629
2192000000	-4.79744874757434	8.80764360174093
2192800000	-4.83148237123262	7.60813859749092
2193600000	-4.86226312553544	6.33901963643419
2194400000	-4.89225690822371	5.0787971016557
2195200000	-4.92640642624316	3.86011252197721
2196000000	-4.95999147455631	2.62800824325248
2196800000	-4.99248993424782	1.42137299552666
2197600000	-5.03538964955811	0.19999578700879
2198400000	-5.07437991723259	-1.02972284096132
2199200000	-5.11703901351822	-2.24152434348774
2200000000	-5.16214639149307	-3.48095094704314
2200800000	-5.21193046902623	-4.68816534846576
2201600000	-5.26158228168687	-5.87353840221468
2202400000	-5.31782467434446	-7.06687034519329
2203200000	-5.37220438407393	-8.2495703782561
2204000000	-5.43155229362232	-9.37952582872244
2204800000	-5.48928702177284	-10.5131105357514
2205600000	-5.55312190696638	-11.6587093263836
2206400000	-5.60942644896889	-12.7376161143071
2207200000	-5.67325118204324	-13.7897917494307
2208000000	-5.72941751616522	-14.886432357728
2208800000	-5.78459232795016	-15.9237303238893
2209600000	-5.84299374437478	-16.9728147197684
2210400000	-5.89414722665841	-18.0479473496642
2211200000	-5.94784704139875	-19.0684737433485
2212000000	-6.00573292006774	-20.1568427880442
2212800000	-6.05916024717569	-21.2144805501311
2213600000	-6.11103461486149	-22.2775567957808
2214400000	-6.17508867655171	-23.3654230190971
2215200000	-6.22873245972677	-24.4461989797153
2216000000	-6.2934029118118	-25.506415766504
2216800000	-6.35007306958737	-26.5482817858699
2217600000	-6.418765740089	-27.5843066400461
2218400000	-6.4756322906503	-28.6381276460032
2219200000	-6.53911559322844	-29.6219218341028
2220000000	-6.60069000022872	-30.6685280004004
2220800000	-6.65657507699797	-31.6693129314929
2221600000	-6.70775232293086	-32.6786421270414
2222400000	-6.76380486427702	-33.6911466081362
2223200000	-6.81396512771988	-34.6905320338789
2224000000	-6.86864422754635	-35.7553249837027
2224800000	-6.91735001393453	-36.805778153024
2225600000	-6.972644799583	-37.8869588733365
2226400000	-7.02431328526347	-38.9233588873263
2227200000	-7.07762965851625	-40.0777405274664
2228000000	-7.1327500661626	-41.1472603012813
2228800000	-7.18344598434338	-42.2571842593943
2229600000	-7.24430741551312	-43.3961925677048
2230400000	-7.30228476252892	-44.4990067133762
2231200000	-7.36137466591184	-45.5981545554235
2232000000	-7.42712344065683	-46.7602197385385
2232800000	-7.4859654558906	-47.8509291527133
2233600000	-7.56266620185914	-48.9121741001312
2234400000	-7.61140998511239	-50.0220754051691
2235200000	-7.6736898525363	-51.0975141776949
2236000000	-7.72466862307551	-52.1646610982962
2236800000	-7.78373637906248	-53.283124864624
2237600000	-7.83928633230467	-54.3845380079566
2238400000	-7.8871764051535	-55.4979530424599
2239200000	-7.93166959482394	-56.6708002654768
2240000000	-7.98270310874009	-57.9171800734364
2240800000	-8.02976238730567	-59.0465034453041
2241600000	-8.08201864673315	-60.3306421524524
2242400000	-8.13003363608743	-61.5682628145892
2243200000	-8.18476679583918	-62.8488085554126
2244000000	-8.23427186609789	-64.0928482935923
2244800000	-8.29138603986194	-65.408267581672
2245600000	-8.34994646236073	-66.670275128158
2246400000	-8.40000528599147	-68.0632610094586
2247200000	-8.45995927200879	-69.4128416531945
2248000000	-8.51522409151766	-70.7831403981476
2248800000	-8.5693705052878	-72.1298512214335
2249600000	-8.63705514952348	-73.5971967473298
2250400000	-8.68939548632606	-74.9377372894316
2251200000	-8.7518968817238	-76.4202295699919
2252000000	-8.80131266921699	-77.8374011646055
2252800000	-8.86467250846605	-79.2981480110419
2253600000	-8.93693583437702	-80.8457813961914
2254400000	-9.00461040034988	-82.3479526054778
2255200000	-9.06800086575248	-83.8721746811318
2256000000	-9.1409434686383	-85.4740461643507
2256800000	-9.19883311889289	-87.0631713026881
2257600000	-9.27862734308323	-88.6768962182458
2258400000	-9.3484126266399	-90.2844243797563
2259200000	-9.41917646357738	-91.8759913576795
2260000000	-9.49931461071513	-93.5090982081241
2260800000	-9.57370861740661	-95.1000551876658
2261600000	-9.66147049077021	-96.7658978325157
2262400000	-9.72994408424663	-98.4141965425723
2263200000	-9.80657084431207	-100.186218210573
2264000000	-9.88661433172105	-101.921947060945
2264800000	-9.96538997545213	-103.745703108875
2265600000	-10.0516329946434	-105.560002248391
2266400000	-10.1414537810841	-107.37925032896
2267200000	-10.22928206939	-109.279670259235
2268000000	-10.3348127281997	-111.153872347053
2268800000	-10.4208402803941	-113.180787451317
2269600000	-10.5392253409414	-115.076789603378
2270400000	-10.6385905947598	-117.089628525449
2271200000	-10.7531271269784	-119.113149013817
2272000000	-10.87030101316	-121.153817216404
2272800000	-11.0026852451314	-123.244612216521
2273600000	-11.1185401081908	-125.33827188493
2274400000	-11.2579392758554	-127.490490486916
2275200000	-11.4043513252497	-129.563138249106
2276000000	-11.5628913596275	-131.743189017077
2276800000	-11.7174484198761	-133.793429366694
2277600000	-11.8979459863307	-135.835235625144
2278400000	-12.0541026724864	-137.939771553322
2279200000	-12.2325485454378	-140.03153961226
2280000000	-12.4015670964165	-142.090104823266
2280800000	-12.5692907117131	-144.062909328581
2281600000	-12.7424099981608	-146.161474435246
2282400000	-12.9110935434062	-148.219710903027
2283200000	-13.0917989082217	-150.323625915325
2284000000	-13.2720275040306	-152.372107466023
2284800000	-13.4426438563441	-154.566376416347
2285600000	-13.6194279748434	-156.67759931966
2286400000	-13.8016051397428	-158.85066915996
2287200000	-13.9801113292521	-161.054729261114
2288000000	-14.1701021126371	-163.304561462956
2288800000	-14.3599057369197	-165.578094954521
2289600000	-14.5481601999621	-167.801139587611
2290400000	-14.7476583460087	-170.13072296045
2291200000	-14.9410630517131	-172.369902575026
2292000000	-15.1389532733247	-174.62050306686
2292800000	-15.3314143437953	-176.957799480462
2293600000	-15.537805149648	-179.248219733388
2294400000	-15.7392239667308	178.286853875625
2295200000	-15.9605771889145	175.976219551931
2296000000	-16.1645363980034	173.596495182577
2296800000	-16.3776133656316	171.297283048692
2297600000	-16.5961075576149	168.946595366165
2298400000	-16.8357139854648	166.521142610459
2299200000	-17.0587458198637	164.335572197786
2300000000	-17.2822285731735	162.233821442421
2300800000	-17.4970430909894	159.938660480205
2301600000	-17.6831920755897	157.832008302668
2302400000	-17.8710058539524	155.656785003229
2303200000	-18.0849074412769	153.63354282683
2304000000	-18.2820454480044	151.478015886644
2304800000	-18.4380493433209	149.445578662999
2305600000	-18.5741588235964	147.388070019422
2306400000	-18.7461108774443	145.384794735489
2307200000	-18.8765634019412	143.329270649969
2308000000	-19.0098522917545	141.328798802885
2308800000	-19.1231118338069	139.311298267953
2309600000	-19.2267167212727	137.126407353311
2310400000	-19.3449745772312	135.124674524999
2311200000	-19.4340193547724	133.146146615446
2312000000	-19.5312580317913	131.190091659974
2312800000	-19.6089152186961	129.198424086624
2313600000	-19.6509206646527	127.499770231519
2314400000	-19.6942757692534	125.823708866426
2315200000	-19.710146571283	123.972864802934
2316000000	-19.7241594868871	121.96446441212
2316800000	-19.71526367149	120.135645522661
2317600000	-19.6939913545251	118.476854555302
2318400000	-19.6626173568254	116.609945666892
2319200000	-19.6205729655108	114.664431695525
2320000000	-19.571250762504	112.701595608021
2320800000	-19.510371604439	110.855078569437
2321600000	-19.4624115955953	109.036968554163
2322400000	-19.3879518368883	107.153250065793
2323200000	-19.2964848873206	105.295466823088
2324000000	-19.2106322027996	103.389431366776
2324800000	-19.1319203315768	101.447607503724
2325600000	-19.0360203125557	99.8097942243016
2326400000	-18.9457135734797	97.8753631965037
2327200000	-18.8338713153668	96.0467373068884
2328000000	-18.7386221226382	94.2822233375609
2328800000	-18.6506949290808	92.5261065665955
2329600000	-18.5493109140986	90.7650140902512
2330400000	-18.4122707883789	89.1776175687692
2331200000	-18.294990989888	87.4787242119583
2332000000	-18.1891052375581	85.7250729015965
2332800000	-18.0763042577424	84.0572414975844
2333600000	-17.9471601938043	82.4862965837143
2334400000	-17.8222573327825	80.6568081696029
2335200000	-17.7062657392281	79.0847223054394
2336000000	-17.5972695432697	77.7010724350572
2336800000	-17.4885579290519	76.0853348674468
2337600000	-17.3795743383386	74.5400516175144
2338400000	-17.26652585651	73.0070745144626
2339200000	-17.1277330839723	71.6279217241849
2340000000	-17.0084891462303	70.2159815689673
2340800000	-16.8741512805017	68.6883791361489
